!Agilent Technologies,E8358A,US40210021,A.06.04.30
!Agilent E8358A: A.06.04.30
!Date: Sunday, April 15, 2018 12:14:21
!Correction: S11(Full 2 Port(1,2)) S21(Full 2 Port(1,2)) S12(Full 2 Port(1,2)) S22(Full 2 Port(1,2)) 
!S2P File: Measurements: S11, S21, S12, S22:
# Hz S  RI   R 50
300000 4.263183e-002 -6.312128e-003 9.969865e-001 -5.171303e-003 1.010033e+000 -3.074923e-003 3.867215e-002 -3.771122e-003
45298500 1.603194e-002 1.117757e-002 9.886970e-001 -9.764891e-002 9.985201e-001 -1.023268e-001 1.443529e-002 7.186954e-003
90297000 3.404223e-003 1.552434e-002 9.721421e-001 -2.019667e-001 9.817680e-001 -2.058656e-001 8.047731e-003 1.384656e-002
135295500 1.031513e-002 1.387587e-002 9.459124e-001 -3.003868e-001 9.540822e-001 -3.077628e-001 6.343788e-003 2.034617e-002
180294000 1.203109e-002 1.519886e-002 9.077072e-001 -3.975451e-001 9.171665e-001 -4.065687e-001 1.497345e-002 1.078956e-002
225292500 2.943540e-002 1.766348e-002 8.569467e-001 -4.932921e-001 8.677531e-001 -5.010977e-001 2.296268e-002 2.260130e-002
270291000 2.224318e-002 3.252326e-002 7.989226e-001 -5.808786e-001 8.080624e-001 -5.896735e-001 3.172868e-002 1.986111e-002
315289500 2.760726e-002 1.115252e-002 7.351053e-001 -6.637573e-001 7.427267e-001 -6.704358e-001 2.304526e-002 2.957567e-002
360288000 4.056307e-002 2.269250e-002 6.624179e-001 -7.351857e-001 6.670716e-001 -7.450420e-001 3.586121e-002 9.866387e-003
405286500 3.627642e-002 2.657684e-003 5.798251e-001 -8.000827e-001 5.849379e-001 -8.108736e-001 3.468687e-002 1.436344e-002
450285000 6.587998e-002 1.141240e-002 4.862851e-001 -8.572513e-001 5.006509e-001 -8.669284e-001 6.031179e-002 4.113303e-003
495283500 4.230909e-002 8.318953e-003 4.020434e-001 -9.037932e-001 3.971358e-001 -9.114953e-001 4.592591e-002 1.640026e-002
540282000 7.148648e-002 -8.911899e-003 2.988168e-001 -9.371973e-001 3.038267e-001 -9.517465e-001 6.482945e-002 2.241193e-004
585280500 5.254879e-002 6.799802e-003 2.048754e-001 -9.701088e-001 2.008025e-001 -9.784668e-001 4.281753e-002 1.384238e-003
630279000 5.548961e-002 -3.117733e-002 1.018499e-001 -9.772720e-001 1.042813e-001 -9.934437e-001 6.957484e-002 -1.766117e-002
675277500 6.596441e-002 -2.181799e-002 -4.006215e-003 -9.916974e-001 -6.491445e-003 -9.977152e-001 4.593521e-002 -2.045800e-002
720276000 5.764182e-002 -4.667122e-002 -1.037530e-001 -9.794292e-001 -1.107261e-001 -9.952745e-001 8.108900e-002 -3.406174e-002
765274500 7.950388e-002 -3.829718e-002 -2.111459e-001 -9.672692e-001 -2.133188e-001 -9.778383e-001 5.309257e-002 -2.680155e-002
810273000 4.797935e-002 -3.383068e-002 -3.161623e-001 -9.396229e-001 -3.190618e-001 -9.476500e-001 7.587615e-002 -2.962801e-002
855271500 4.365042e-002 -5.921950e-002 -4.101116e-001 -9.032381e-001 -4.139644e-001 -9.113330e-001 2.840926e-002 -4.186262e-002
900270000 3.647470e-002 -7.258569e-002 -5.024660e-001 -8.552786e-001 -5.097654e-001 -8.615144e-001 5.970217e-002 -6.102423e-002
945268500 5.174264e-002 -8.544426e-002 -5.898110e-001 -7.990977e-001 -5.964945e-001 -8.038505e-001 3.913548e-002 -7.653477e-002
990267000 4.452436e-002 -7.115131e-002 -6.707360e-001 -7.297539e-001 -6.775486e-001 -7.361496e-001 7.560534e-002 -5.611658e-002
1035265500 3.343404e-002 -6.985574e-002 -7.475441e-001 -6.580968e-001 -7.540458e-001 -6.637222e-001 2.610539e-002 -6.265911e-002
1080264000 2.307710e-003 -7.448210e-002 -8.130090e-001 -5.756156e-001 -8.210109e-001 -5.810910e-001 3.650378e-002 -5.674914e-002
1125262500 1.051158e-002 -1.057554e-001 -8.689655e-001 -4.883851e-001 -8.763266e-001 -4.948236e-001 2.822045e-003 -9.963505e-002
1170261000 -6.344675e-004 -8.304030e-002 -9.171719e-001 -3.912012e-001 -9.268153e-001 -3.958331e-001 3.666896e-002 -7.779641e-002
1215259500 -6.944006e-003 -1.164437e-001 -9.516622e-001 -2.933472e-001 -9.642767e-001 -2.972607e-001 5.846790e-003 -1.020979e-001
1260258000 7.490439e-003 -7.841516e-002 -9.771451e-001 -1.887089e-001 -9.901903e-001 -1.877265e-001 2.310527e-002 -6.622355e-002
1305256500 -3.913604e-002 -9.655293e-002 -9.936205e-001 -8.714224e-002 -1.003796e+000 -8.696438e-002 -1.003260e-002 -1.054490e-001
1350255000 -3.862757e-003 -8.700058e-002 -9.989335e-001 2.086725e-002 -1.011190e+000 2.437908e-002 5.419972e-003 -6.259175e-002
1395253500 -7.447591e-002 -6.633339e-002 -9.934199e-001 1.258068e-001 -1.002025e+000 1.294685e-001 -3.091328e-002 -1.057436e-001
1440252000 -4.288651e-002 -1.289400e-001 -9.726946e-001 2.296151e-001 -9.838046e-001 2.311430e-001 -1.942932e-002 -7.427928e-002
1485250500 -4.056861e-002 -5.837104e-002 -9.399489e-001 3.301847e-001 -9.427310e-001 3.395845e-001 -2.872773e-002 -1.196355e-001
1530249000 -6.593695e-002 -1.077077e-001 -9.023683e-001 4.360594e-001 -9.110771e-001 4.414900e-001 -1.358902e-002 -6.311504e-002
1575247500 -3.057318e-002 -3.721240e-002 -8.498791e-001 5.309004e-001 -8.534589e-001 5.320007e-001 -4.054206e-002 -9.092332e-002
1620246000 -1.322297e-001 -6.727801e-002 -7.962995e-001 6.042798e-001 -8.022450e-001 6.196548e-001 -6.441998e-002 -5.794997e-002
1665244500 -4.773473e-002 -9.308238e-002 -7.097449e-001 6.916715e-001 -7.212730e-001 6.943017e-001 -6.100554e-002 -1.131419e-001
1710243000 -1.036890e-001 -4.078816e-002 -6.461689e-001 7.602795e-001 -6.430599e-001 7.727092e-001 -6.084172e-002 -7.619637e-002
1755241500 -6.745372e-002 -8.767039e-002 -5.473090e-001 8.219497e-001 -5.579939e-001 8.345834e-001 -4.317923e-002 -9.105816e-002
1800240000 -8.527828e-002 -5.071913e-004 -4.660170e-001 8.829850e-001 -4.641432e-001 8.870556e-001 -8.842660e-002 -4.009055e-002
1845238500 -1.306337e-001 -5.917012e-002 -3.639522e-001 9.130229e-001 -3.683971e-001 9.312953e-001 -7.941970e-002 -8.166792e-002
1890237000 -7.897774e-002 -2.398171e-002 -2.667167e-001 9.580690e-001 -2.655519e-001 9.578857e-001 -1.124030e-001 -5.328720e-002
1935235500 -1.371942e-001 -2.493667e-002 -1.692744e-001 9.776777e-001 -1.612816e-001 9.876507e-001 -7.786842e-002 -7.765386e-002
1980234000 -7.840081e-002 -3.468493e-002 -5.296934e-002 9.784654e-001 -5.185753e-002 9.886847e-001 -1.171601e-001 -3.362982e-002
2025232500 -1.151419e-001 1.999172e-002 4.716004e-002 9.839505e-001 4.504415e-002 9.948843e-001 -8.627637e-002 -5.330960e-002
2070231000 -1.006757e-001 -8.759882e-003 1.448073e-001 9.688793e-001 1.450028e-001 9.762568e-001 -1.269671e-001 -1.625681e-002
2115229500 -1.182048e-001 4.580184e-002 2.462422e-001 9.553893e-001 2.507361e-001 9.675341e-001 -1.078846e-001 -2.123701e-002
2160228000 -1.271527e-001 6.948262e-003 3.449385e-001 9.097326e-001 3.484475e-001 9.181666e-001 -1.516130e-001 -2.732987e-004
2205226500 -1.026822e-001 3.217956e-002 4.406384e-001 8.745567e-001 4.514727e-001 8.817316e-001 -1.195213e-001 -1.207327e-002
2250225000 -9.320172e-002 3.625875e-002 5.238756e-001 8.341243e-001 5.273231e-001 8.362674e-001 -1.246437e-001 3.116708e-003
2295223500 -8.540114e-002 8.024063e-002 6.113448e-001 7.583477e-001 6.217235e-001 7.670489e-001 -9.412809e-002 4.783946e-002
2340222000 -1.028786e-001 7.812492e-002 6.862570e-001 6.958938e-001 6.915702e-001 7.027813e-001 -1.417865e-001 5.231003e-002
2385220500 -9.553773e-002 8.266831e-002 7.506136e-001 6.104639e-001 7.668073e-001 6.093351e-001 -1.211244e-001 6.864944e-002
2430219000 -8.859640e-002 7.011040e-002 8.209159e-001 5.471742e-001 8.269714e-001 5.458599e-001 -1.371287e-001 3.662968e-002
2475217500 -4.681356e-002 8.817046e-002 8.580742e-001 4.492817e-001 8.693905e-001 4.479841e-001 -6.839117e-002 8.357891e-002
2520216000 -5.950544e-002 1.222217e-001 9.084128e-001 3.529084e-001 9.182327e-001 3.554145e-001 -1.001009e-001 9.385130e-002
2565214500 -3.555742e-002 1.028805e-001 9.281334e-001 2.607798e-001 9.383403e-001 2.594137e-001 -7.021873e-002 1.237718e-001
2610213000 -4.383713e-002 1.477349e-001 9.561087e-001 1.531250e-001 9.702593e-001 1.535978e-001 -9.721132e-002 1.060825e-001
2655211500 -3.519648e-002 8.994798e-002 9.720707e-001 6.227838e-002 9.794995e-001 6.146078e-002 -5.201661e-002 1.182086e-001
2700210000 1.034268e-002 1.418590e-001 9.593191e-001 -5.214439e-002 9.758574e-001 -5.597097e-002 -4.747175e-002 1.163204e-001
2745208500 -9.516068e-003 9.192659e-002 9.623604e-001 -1.440762e-001 9.721436e-001 -1.464261e-001 -2.389535e-002 1.318976e-001
2790207000 7.281256e-002 1.329019e-001 9.271433e-001 -2.437564e-001 9.383585e-001 -2.514543e-001 6.012383e-004 1.218107e-001
2835205500 5.441985e-003 1.378170e-001 9.046965e-001 -3.485581e-001 9.117725e-001 -3.475236e-001 2.188393e-003 1.534203e-001
2880204000 6.514349e-002 9.847012e-002 8.544043e-001 -4.292493e-001 8.643249e-001 -4.370164e-001 2.001443e-002 1.236488e-001
2925202500 3.658478e-002 1.158227e-001 8.101435e-001 -5.330253e-001 8.188699e-001 -5.359272e-001 7.310018e-003 1.332835e-001
2970201000 9.181196e-002 4.244853e-002 7.554124e-001 -5.960690e-001 7.609916e-001 -6.030036e-001 6.281962e-002 7.719667e-002
3015199500 1.258145e-001 1.170100e-001 6.832553e-001 -6.741698e-001 6.876625e-001 -6.786305e-001 7.317995e-002 1.281205e-001
3060198000 7.013690e-002 6.458011e-002 6.079236e-001 -7.532787e-001 6.160526e-001 -7.565584e-001 8.619089e-002 9.582287e-002
3105196500 1.223452e-001 7.212738e-002 5.239324e-001 -7.916549e-001 5.256217e-001 -8.066692e-001 5.449381e-002 1.231194e-001
3150195000 6.361903e-002 3.668879e-002 4.366840e-001 -8.559464e-001 4.427474e-001 -8.653557e-001 7.518931e-002 4.842705e-002
3195193500 1.537762e-001 3.719176e-003 3.634671e-001 -8.884878e-001 3.533355e-001 -8.949044e-001 9.443600e-002 6.601689e-002
3240192000 9.984649e-002 4.998980e-002 2.460605e-001 -9.174330e-001 2.520731e-001 -9.299278e-001 1.153173e-001 4.453444e-002
3285190500 1.200049e-001 -2.712402e-002 1.638178e-001 -9.519345e-001 1.529123e-001 -9.567248e-001 1.008641e-001 6.703293e-002
3330189000 1.095278e-001 2.163188e-002 5.646202e-002 -9.490370e-001 5.215794e-002 -9.627488e-001 9.351169e-002 3.418909e-002
3375187500 8.817372e-002 -5.017557e-002 -3.708508e-002 -9.604697e-001 -4.667755e-002 -9.632291e-001 9.210888e-002 1.551378e-002
3420186000 1.164233e-001 -1.868760e-002 -1.413879e-001 -9.409286e-001 -1.456477e-001 -9.552443e-001 1.065685e-001 1.611534e-002
3465184500 6.014384e-002 -5.939858e-002 -2.467125e-001 -9.261701e-001 -2.524194e-001 -9.351814e-001 9.035761e-002 -7.771286e-003
3510183000 1.138529e-001 -6.578976e-002 -3.343971e-001 -8.865236e-001 -3.499866e-001 -9.003432e-001 1.109525e-001 3.018380e-003
3555181500 6.554894e-002 -4.270981e-002 -4.258048e-001 -8.512018e-001 -4.312571e-001 -8.536692e-001 8.617171e-002 -2.594631e-002
3600180000 7.040604e-002 -6.832282e-002 -5.166504e-001 -8.024853e-001 -5.327123e-001 -8.054253e-001 1.055106e-001 7.047031e-003
3645178500 3.177511e-002 -5.008979e-002 -5.939140e-001 -7.475804e-001 -5.973564e-001 -7.525384e-001 5.265364e-002 -3.351561e-002
3690177000 3.734407e-002 -1.133900e-001 -6.667144e-001 -6.742158e-001 -6.865376e-001 -6.702484e-001 9.034429e-002 -2.803495e-002
3735175500 6.465004e-002 -6.830733e-002 -7.356240e-001 -6.044403e-001 -7.437316e-001 -6.083586e-001 7.005905e-002 -5.850190e-002
3780174000 2.898892e-002 -7.256014e-002 -7.943404e-001 -5.231466e-001 -8.048854e-001 -5.147063e-001 1.108138e-001 -2.423013e-002
3825172500 2.375915e-002 -5.038334e-002 -8.525149e-001 -4.418561e-001 -8.646085e-001 -4.483033e-001 5.464556e-002 -2.886069e-002
3870171000 -2.159771e-002 -8.571017e-002 -8.756632e-001 -3.514206e-001 -8.868623e-001 -3.418909e-001 6.033061e-002 -4.300689e-002
3915169500 2.321560e-002 -8.095754e-002 -9.179338e-001 -2.457343e-001 -9.347120e-001 -2.433788e-001 5.086040e-002 -6.973176e-002
3960168000 -9.611609e-003 -6.876910e-002 -9.368212e-001 -1.631857e-001 -9.415234e-001 -1.599190e-001 6.675211e-002 -6.335499e-002
4005166500 8.342735e-003 -5.618515e-002 -9.519476e-001 -4.548544e-002 -9.662901e-001 -4.265050e-002 6.879564e-002 -5.561679e-002
4050165000 -3.433403e-002 -4.590373e-002 -9.519876e-001 3.132901e-002 -9.597127e-001 3.249997e-002 3.601255e-002 -4.837629e-002
4095163500 -1.873699e-003 -7.958701e-002 -9.270441e-001 1.465974e-001 -9.383275e-001 1.595535e-001 5.595696e-002 -6.987625e-002
4140162000 -1.802239e-002 -3.688708e-002 -9.370192e-001 2.405267e-001 -9.407370e-001 2.342058e-001 2.361632e-002 -6.336642e-002
4185160500 -2.985186e-002 -7.625499e-002 -8.779942e-001 3.390839e-001 -8.795942e-001 3.494887e-001 5.037251e-002 -9.069140e-002
4230159000 -1.094548e-002 -3.959015e-002 -8.538858e-001 4.375097e-001 -8.717809e-001 4.443103e-001 1.037679e-002 -5.978893e-002
4275157500 -4.222350e-002 -6.245081e-002 -7.963874e-001 5.059800e-001 -7.862135e-001 5.159971e-001 3.939664e-002 -1.070924e-001
4320156000 8.175159e-003 -3.392886e-002 -7.432644e-001 6.046596e-001 -7.508972e-001 6.195683e-001 9.913839e-003 -5.390524e-002
4365154500 -7.350050e-002 -2.436748e-002 -6.861842e-001 6.552138e-001 -6.678482e-001 6.667188e-001 1.671284e-002 -9.754751e-002
4410153000 -1.994241e-002 -6.915915e-002 -5.918751e-001 7.458152e-001 -5.927821e-001 7.565901e-001 -1.761230e-002 -6.229161e-002
4455151500 -6.377286e-002 -1.915122e-002 -5.338664e-001 8.012771e-001 -5.238223e-001 7.927141e-001 -2.305517e-002 -1.090844e-001
4500150000 -1.823193e-002 -6.940484e-002 -4.421249e-001 8.467327e-001 -4.328838e-001 8.548243e-001 -4.755551e-003 -7.476457e-002
4545148500 -4.536160e-002 1.699561e-002 -3.446731e-001 8.891022e-001 -3.342996e-001 8.868385e-001 -2.178169e-002 -6.707326e-002
4590147000 -8.377653e-002 -5.452399e-002 -2.530401e-001 8.981572e-001 -2.642491e-001 9.162688e-001 -4.181972e-002 -6.811258e-002
4635145500 -3.284294e-002 -1.024974e-002 -1.347006e-001 9.467395e-001 -1.376203e-001 9.419279e-001 -6.014167e-002 -5.616215e-002
4680144000 -8.814463e-002 -2.402048e-002 -7.008956e-002 9.459139e-001 -4.689934e-002 9.552965e-001 -5.884217e-002 -7.615887e-002
4725142500 -2.890096e-002 -1.072559e-002 6.060419e-002 9.274036e-001 3.907579e-002 9.382051e-001 -4.996578e-002 -1.626278e-002
4770141000 -9.278306e-002 2.756340e-002 1.264449e-001 9.484395e-001 1.454903e-001 9.423641e-001 -9.244327e-002 -5.668733e-002
4815139500 -5.280496e-002 -2.716349e-002 2.407302e-001 8.906955e-001 2.407264e-001 9.199072e-001 -5.496991e-002 -3.738617e-004
4860138000 -6.498624e-002 5.086169e-002 3.386890e-001 9.012177e-001 3.377742e-001 8.840783e-001 -1.157551e-001 -3.201448e-002
4905136500 -7.580307e-002 -5.149330e-003 3.978416e-001 8.375692e-001 4.191550e-001 8.588123e-001 -4.958987e-002 2.033255e-002
4950135000 -5.357420e-002 7.657487e-002 5.332566e-001 7.958299e-001 5.156242e-001 7.992970e-001 -1.217690e-001 1.803382e-002
4995133500 -9.334087e-002 2.175248e-002 5.533913e-001 7.423798e-001 5.929918e-001 7.326251e-001 -4.475378e-002 2.771636e-002
5040132000 -2.205965e-002 7.207803e-002 6.733699e-001 6.479901e-001 6.692404e-001 6.686828e-001 -8.932065e-002 6.054798e-002
5085130500 -7.554980e-002 8.391146e-002 7.162532e-001 6.231094e-001 7.280999e-001 5.891898e-001 -5.000382e-002 5.431967e-002
5130129000 -2.068316e-002 7.390725e-002 7.746135e-001 4.852330e-001 7.982858e-001 5.046774e-001 -5.864821e-002 9.284874e-002
5175127500 -4.724400e-002 1.021667e-001 8.433900e-001 4.473153e-001 8.289255e-001 4.222469e-001 -5.737635e-002 7.902644e-002
5220126000 -5.955115e-003 6.377809e-002 8.500812e-001 3.258893e-001 8.886635e-001 3.244234e-001 -1.966672e-003 8.812898e-002
5265124500 3.193840e-003 1.287302e-001 9.124336e-001 2.385579e-001 8.950096e-001 2.477972e-001 -2.072234e-002 1.098823e-001
5310123000 -1.969662e-002 8.653814e-002 8.982890e-001 1.655895e-001 9.193963e-001 1.301204e-001 3.170066e-002 9.058770e-002
5355121500 4.023223e-002 1.096276e-001 9.422415e-001 2.492562e-002 9.543215e-001 5.678235e-002 -1.537819e-002 1.322779e-001
5400120000 9.512424e-003 9.528861e-002 9.221275e-001 -2.285834e-002 9.204927e-001 -6.877877e-002 6.255803e-002 6.492075e-002
5445118500 8.382326e-002 1.016225e-001 9.087787e-001 -1.570445e-001 9.429668e-001 -1.414466e-001 4.067516e-002 1.474742e-001
5490117000 2.919207e-002 1.262103e-001 9.108053e-001 -2.113429e-001 8.801156e-001 -2.377393e-001 7.459252e-002 5.986539e-002
5535115500 8.221152e-002 6.940326e-002 8.610033e-001 -3.365698e-001 8.967217e-001 -3.533090e-001 8.845355e-002 1.215806e-001
5580114000 8.537693e-002 1.079041e-001 8.462758e-001 -4.177363e-001 8.296525e-001 -4.140458e-001 9.732979e-002 4.565651e-002
5625112500 9.489170e-002 5.697834e-002 7.747913e-001 -4.937071e-001 7.778724e-001 -5.363195e-001 1.339782e-001 9.325378e-002
5670111000 1.239739e-001 9.984162e-002 7.359135e-001 -5.918750e-001 7.335732e-001 -5.674568e-001 1.099231e-001 5.189933e-002
5715109500 8.187796e-002 4.464747e-002 6.687798e-001 -6.526817e-001 6.301128e-001 -6.758412e-001 1.361848e-001 3.349911e-002
5760108000 1.445813e-001 3.461466e-002 5.866877e-001 -7.328753e-001 5.910814e-001 -7.207514e-001 1.276731e-001 2.431010e-002
5805106500 9.171081e-002 3.571620e-002 5.310490e-001 -7.674142e-001 4.663223e-001 -7.605094e-001 1.329235e-001 -2.784592e-002
5850105000 1.409041e-001 6.391280e-004 4.138423e-001 -8.248740e-001 4.200423e-001 -8.406851e-001 1.639169e-001 1.689479e-002
5895103500 9.246853e-002 3.241221e-002 3.307618e-001 -8.556874e-001 3.132479e-001 -8.291175e-001 9.359522e-002 -5.519631e-002
5940102000 1.114661e-001 -3.212700e-002 2.307087e-001 -8.822941e-001 2.254691e-001 -9.086153e-001 1.634861e-001 -4.054043e-002
5985100500 1.241710e-001 2.331990e-002 1.332470e-001 -8.952032e-001 1.561784e-001 -9.015006e-001 7.054888e-002 -6.511515e-002
6030099000 7.360391e-002 -3.003723e-002 2.875854e-002 -9.078087e-001 1.588859e-002 -9.200643e-001 1.376758e-001 -7.723813e-002
6075097500 1.251142e-001 -1.212478e-002 -4.061238e-002 -8.975827e-001 -9.404786e-003 -9.198045e-001 4.976263e-002 -6.772229e-002
6120096000 4.249385e-002 -3.838734e-002 -1.464537e-001 -9.082425e-001 -1.510312e-001 -9.088097e-001 9.478683e-002 -1.105577e-001
6165094500 1.287225e-001 -6.129927e-002 -2.207997e-001 -8.706603e-001 -2.198548e-001 -9.147396e-001 6.032068e-002 -7.254592e-002
6210093000 3.597398e-002 6.923305e-003 -3.267966e-001 -8.489804e-001 -3.296608e-001 -8.456681e-001 3.017780e-002 -9.776045e-002
6255091500 6.492183e-002 -9.062269e-002 -3.975008e-001 -8.319114e-001 -4.210544e-001 -8.461758e-001 2.904501e-002 -9.872822e-002
6300090000 4.641988e-002 5.999659e-004 -5.004485e-001 -7.595708e-001 -5.021021e-001 -7.668031e-001 -3.691880e-003 -9.390463e-002
6345088500 2.731262e-002 -8.659668e-002 -5.653058e-001 -7.255620e-001 -5.912315e-001 -7.168728e-001 2.701671e-002 -1.168322e-001
6390087000 7.396641e-002 -4.436720e-004 -6.271797e-001 -6.332988e-001 -6.420829e-001 -6.510350e-001 -1.667929e-002 -2.714090e-002
6435085500 -1.098643e-002 -3.244697e-002 -7.202178e-001 -5.976278e-001 -7.243149e-001 -5.723309e-001 -3.535626e-002 -9.570848e-002
6480084000 5.411534e-002 -2.072024e-002 -7.431526e-001 -5.058818e-001 -7.697949e-001 -5.012714e-001 -3.651802e-002 -6.467242e-003
6525082500 -6.110907e-003 -4.109118e-003 -8.033686e-001 -4.291444e-001 -8.142549e-001 -4.146664e-001 -6.109535e-002 -9.728884e-002
6570081000 3.389000e-002 -3.879629e-002 -8.428560e-001 -3.368212e-001 -8.637151e-001 -3.316022e-001 3.187439e-004 4.883880e-003
6615079500 2.249294e-002 3.160964e-002 -8.569555e-001 -2.528223e-001 -8.641745e-001 -2.368741e-001 -7.656028e-002 -3.357595e-002
6660078000 1.418522e-002 -2.564268e-002 -8.978639e-001 -1.400406e-001 -9.174452e-001 -1.321575e-001 -1.365360e-002 1.197232e-002
6705076500 5.644429e-002 4.024358e-002 -9.116901e-001 -8.569758e-002 -9.190782e-001 -7.718005e-002 -6.808289e-002 1.625717e-002
6750075000 -5.634825e-003 7.604754e-003 -8.911580e-001 5.343683e-002 -9.054902e-001 6.910715e-002 -2.396864e-002 1.354941e-002
6795073500 6.598125e-002 1.482600e-002 -9.138207e-001 1.251289e-001 -9.204877e-001 1.321885e-001 -3.367194e-002 4.370369e-002
6840072000 1.162007e-002 1.490849e-002 -8.567025e-001 2.044940e-001 -8.724597e-001 2.203871e-001 -2.747817e-002 1.324123e-002
6885070500 8.591074e-002 -3.678590e-003 -8.674029e-001 3.279894e-001 -8.856859e-001 3.394851e-001 1.877217e-002 5.959241e-002
