!Agilent Technologies,E8358A,US40210021,A.06.04.30
!Agilent E8358A: A.06.04.30
!Date: Sunday, April 15, 2018 12:15:41
!Correction: S11(Full 2 Port(1,2)) S21(Full 2 Port(1,2)) S12(Full 2 Port(1,2)) S22(Full 2 Port(1,2)) 
!S2P File: Measurements: S11, S21, S12, S22:
# Hz S  RI   R 50
300000 9.952641e-001 -1.295208e-002 9.518884e-006 1.890934e-003 4.265050e-005 1.949967e-003 1.008143e+000 -7.929972e-003
45298500 8.893780e-001 -3.583392e-001 1.032943e-001 2.534615e-001 1.050326e-001 2.561943e-001 8.979968e-001 -3.578894e-001
90297000 6.397145e-001 -5.869732e-001 3.295674e-001 3.627940e-001 3.342503e-001 3.658796e-001 6.464574e-001 -5.856619e-001
135295500 3.936044e-001 -6.579859e-001 5.550011e-001 3.278510e-001 5.602176e-001 3.278188e-001 3.867160e-001 -6.611150e-001
180294000 1.758504e-001 -6.321887e-001 7.180743e-001 1.964374e-001 7.316152e-001 1.959246e-001 1.832663e-001 -6.409628e-001
225292500 3.541587e-002 -5.727167e-001 8.145016e-001 3.858858e-002 8.278161e-001 3.976253e-002 2.959944e-002 -5.742434e-001
270291000 -8.101809e-002 -4.866125e-001 8.482471e-001 -1.307547e-001 8.588000e-001 -1.360021e-001 -6.716618e-002 -4.936493e-001
315289500 -1.392479e-001 -4.306848e-001 8.385623e-001 -2.850377e-001 8.476162e-001 -2.902504e-001 -1.489218e-001 -4.194677e-001
360288000 -1.797031e-001 -3.422040e-001 7.967853e-001 -4.392083e-001 8.010075e-001 -4.489229e-001 -1.781363e-001 -3.553684e-001
405286500 -2.127626e-001 -2.975819e-001 7.316083e-001 -5.631170e-001 7.365702e-001 -5.725484e-001 -2.137197e-001 -2.910500e-001
450285000 -2.067868e-001 -2.242457e-001 6.424225e-001 -6.828262e-001 6.527715e-001 -6.900768e-001 -2.089265e-001 -2.296341e-001
495283500 -2.411744e-001 -1.758139e-001 5.515220e-001 -7.633075e-001 5.517748e-001 -7.735695e-001 -2.368008e-001 -1.760006e-001
540282000 -2.173043e-001 -1.436342e-001 4.317708e-001 -8.427423e-001 4.399668e-001 -8.561523e-001 -2.205821e-001 -1.352229e-001
585280500 -2.386989e-001 -8.215605e-002 3.267211e-001 -9.003994e-001 3.237166e-001 -9.088833e-001 -2.413817e-001 -1.000783e-001
630279000 -2.273573e-001 -8.392857e-002 1.976173e-001 -9.339707e-001 2.012235e-001 -9.519981e-001 -2.105540e-001 -7.176990e-002
675277500 -2.058921e-001 -3.025096e-002 7.490618e-002 -9.608467e-001 7.180656e-002 -9.673086e-001 -2.248097e-001 -4.301436e-002
720276000 -2.081374e-001 -2.375454e-002 -4.482308e-002 -9.620370e-001 -5.358695e-002 -9.786737e-001 -1.812898e-001 -1.964554e-002
765274500 -1.713133e-001 1.769760e-002 -1.727209e-001 -9.561049e-001 -1.736977e-001 -9.628758e-001 -1.980747e-001 1.408149e-002
810273000 -1.896351e-001 4.812898e-002 -2.877408e-001 -9.305629e-001 -2.924094e-001 -9.406070e-001 -1.615276e-001 3.978186e-002
855271500 -1.718586e-001 4.951807e-002 -4.026029e-001 -8.765613e-001 -4.079764e-001 -8.872240e-001 -1.905627e-001 5.177666e-002
900270000 -1.620271e-001 5.831559e-002 -5.126544e-001 -8.321870e-001 -5.228987e-001 -8.391564e-001 -1.446581e-001 5.304802e-002
945268500 -1.245321e-001 6.690700e-002 -6.115355e-001 -7.610115e-001 -6.227766e-001 -7.670609e-001 -1.471637e-001 5.847295e-002
990267000 -1.112109e-001 9.487189e-002 -6.985553e-001 -6.897096e-001 -7.070704e-001 -6.978539e-001 -9.044581e-002 9.076548e-002
1035265500 -9.382506e-002 1.105921e-001 -7.725312e-001 -5.941508e-001 -7.871377e-001 -5.965021e-001 -1.172276e-001 1.039561e-001
1080264000 -1.031479e-001 1.232385e-001 -8.477048e-001 -4.953897e-001 -8.536015e-001 -5.001053e-001 -8.518024e-002 1.191461e-001
1125262500 -7.111140e-002 9.648022e-002 -9.035196e-001 -3.933966e-001 -9.154308e-001 -3.899651e-001 -1.016243e-001 9.415668e-002
1170261000 -5.527969e-002 1.279827e-001 -9.418599e-001 -2.804812e-001 -9.564750e-001 -2.841972e-001 -4.330586e-002 1.134413e-001
1215259500 -4.171439e-002 9.299739e-002 -9.755211e-001 -1.656469e-001 -9.850284e-001 -1.622490e-001 -5.541620e-002 1.010939e-001
1260258000 8.425003e-003 1.302075e-001 -9.794773e-001 -4.904015e-002 -9.929060e-001 -4.433504e-002 -7.458353e-003 1.313235e-001
1305256500 -2.093352e-002 1.130912e-001 -9.899974e-001 7.010075e-002 -9.978024e-001 7.623251e-002 -2.700620e-002 1.010374e-001
1350255000 4.587416e-002 1.087733e-001 -9.675215e-001 1.812068e-001 -9.759546e-001 1.897368e-001 2.141667e-002 1.326144e-001
1395253500 -2.642988e-004 1.364932e-001 -9.413421e-001 3.075219e-001 -9.492243e-001 3.113835e-001 -3.466801e-003 9.694080e-002
1440252000 3.982975e-002 5.333177e-002 -9.021764e-001 4.132210e-001 -9.040616e-001 4.165132e-001 3.724091e-002 1.139467e-001
1485250500 7.204407e-002 1.055391e-001 -8.449340e-001 5.147838e-001 -8.493336e-001 5.230689e-001 2.866579e-002 6.324229e-002
1530249000 5.646810e-002 4.200315e-002 -7.794526e-001 6.142810e-001 -7.832114e-001 6.183921e-001 8.274303e-002 9.640762e-002
1575247500 1.224671e-001 8.573922e-002 -6.972625e-001 7.019846e-001 -7.064928e-001 7.089145e-001 6.013994e-002 6.699076e-002
1620246000 3.116178e-002 6.264767e-002 -6.107841e-001 7.761261e-001 -6.132290e-001 7.797683e-001 6.855285e-002 9.075916e-002
1665244500 1.060036e-001 -1.344238e-003 -5.133711e-001 8.459353e-001 -5.199084e-001 8.573636e-001 5.433453e-002 2.331680e-002
1710243000 7.187206e-002 3.222035e-002 -4.168321e-001 8.964054e-001 -4.176137e-001 9.023697e-001 8.322134e-002 3.571934e-002
1755241500 1.005449e-001 -4.021057e-002 -3.009400e-001 9.365811e-001 -3.017805e-001 9.495301e-001 9.377381e-002 -6.181586e-003
1800240000 1.031615e-001 1.803157e-002 -1.868987e-001 9.671932e-001 -1.906893e-001 9.736646e-001 8.562609e-002 3.844816e-002
1845238500 5.479690e-002 -3.438240e-002 -7.165440e-002 9.786485e-001 -7.038230e-002 9.903314e-001 7.079615e-002 -1.746040e-002
1890237000 8.644649e-002 -3.782644e-002 3.957372e-002 9.866742e-001 4.142671e-002 9.946399e-001 5.741183e-002 4.076080e-003
1935235500 4.100378e-002 -4.940122e-002 1.542054e-001 9.719527e-001 1.557477e-001 9.816818e-001 6.753737e-002 -5.171447e-002
1980234000 6.187984e-002 -8.157748e-002 2.751358e-001 9.456701e-001 2.823309e-001 9.507509e-001 5.451444e-002 -1.269074e-002
2025232500 4.561485e-002 -6.117217e-002 3.718873e-001 9.027470e-001 3.721479e-001 9.192088e-001 6.071793e-002 -6.296492e-002
2070231000 4.111950e-002 -7.867929e-002 4.836707e-001 8.550738e-001 4.834246e-001 8.587173e-001 4.232762e-002 -2.276843e-002
2115229500 1.694433e-002 -5.392192e-002 5.689347e-001 7.984884e-001 5.818735e-001 8.109022e-001 4.285479e-002 -5.599499e-002
2160228000 -3.221344e-003 -7.914096e-002 6.676322e-001 7.138477e-001 6.724743e-001 7.227224e-001 8.704823e-003 -1.881385e-002
2205226500 -2.264043e-002 -7.253542e-002 7.356490e-001 6.437407e-001 7.530569e-001 6.477467e-001 8.726903e-003 -6.417044e-002
2250225000 -5.281403e-003 -1.035279e-001 8.127245e-001 5.494583e-001 8.138756e-001 5.600629e-001 3.294991e-003 -5.188372e-002
2295223500 -8.545925e-003 -4.242361e-002 8.683286e-001 4.487961e-001 8.819104e-001 4.453825e-001 3.357748e-002 -5.145243e-002
2340222000 -3.789757e-002 -6.659759e-002 9.109393e-001 3.400367e-001 9.224320e-001 3.535907e-001 -2.393175e-003 -1.489842e-002
2385220500 -3.557663e-002 -2.069364e-002 9.462426e-001 2.378899e-001 9.568675e-001 2.267919e-001 -1.438956e-004 -1.929747e-002
2430219000 -8.529919e-002 -5.871433e-002 9.700590e-001 1.336598e-001 9.837543e-001 1.362886e-001 -4.270267e-002 -3.407387e-002
2475217500 -2.201010e-002 -4.546962e-002 9.744998e-001 1.419178e-002 9.805562e-001 6.299675e-003 1.846453e-002 -4.478575e-002
2520216000 -6.125496e-002 -8.255734e-003 9.639920e-001 -9.757113e-002 9.831416e-001 -1.019616e-001 -1.008697e-002 -2.148523e-002
2565214500 -2.986082e-002 -3.605041e-002 9.472410e-001 -2.093162e-001 9.571158e-001 -2.144697e-001 2.370098e-002 -1.436087e-002
2610213000 -4.450439e-002 3.663783e-002 9.149028e-001 -3.115854e-001 9.301652e-001 -3.250776e-001 -3.100160e-002 -1.995510e-003
2655211500 -6.942750e-002 -2.220327e-002 8.745378e-001 -4.241489e-001 8.841349e-001 -4.286646e-001 7.136326e-003 -2.211476e-002
2700210000 -1.606909e-002 3.072619e-002 8.130660e-001 -5.138026e-001 8.240933e-001 -5.296836e-001 -2.014175e-002 -1.019247e-002
2745208500 -8.040759e-002 -6.027967e-003 7.488634e-001 -6.103658e-001 7.601029e-001 -6.199612e-001 8.386507e-003 -2.198933e-002
2790207000 2.190007e-002 -1.289945e-003 6.744799e-001 -6.857639e-001 6.766300e-001 -7.022523e-001 -2.702278e-003 -1.963287e-002
2835205500 -4.210299e-002 4.915006e-002 5.854520e-001 -7.663181e-001 5.934974e-001 -7.742004e-001 2.261257e-002 -9.963801e-003
2880204000 3.520751e-003 7.743806e-003 5.004528e-001 -8.201523e-001 5.017084e-001 -8.351715e-001 5.989811e-003 -7.248429e-003
2925202500 -3.672767e-002 6.188539e-002 3.917257e-001 -8.765491e-001 3.984487e-001 -8.885272e-001 -5.364781e-003 6.147009e-003
2970201000 -2.602671e-002 -2.836156e-002 2.971189e-001 -9.149375e-001 2.954986e-001 -9.248960e-001 -1.648087e-002 -4.436640e-002
3015199500 3.355389e-002 2.254276e-002 1.922502e-001 -9.433561e-001 1.898662e-001 -9.528237e-001 1.768653e-002 -2.490676e-002
3060198000 -6.712907e-003 1.149174e-002 6.671909e-002 -9.584826e-001 7.068731e-002 -9.781346e-001 1.453780e-002 -3.915965e-002
3105196500 3.519922e-002 2.897020e-002 -1.883672e-002 -9.527887e-001 -2.407685e-002 -9.595445e-001 1.699229e-002 2.209415e-002
3150195000 -2.919694e-002 2.818616e-002 -1.486667e-001 -9.315476e-001 -1.607787e-001 -9.527537e-001 -2.460201e-002 -2.889538e-002
3195193500 2.539181e-002 -2.383888e-002 -2.431336e-001 -9.394670e-001 -2.446243e-001 -9.363024e-001 -1.358372e-003 -1.331416e-002
3240192000 1.287177e-002 1.898312e-002 -3.446236e-001 -8.737537e-001 -3.628189e-001 -8.825643e-001 -5.411794e-003 -5.197053e-002
3285190500 2.018393e-002 -1.957093e-002 -4.586551e-001 -8.560385e-001 -4.587338e-001 -8.594285e-001 2.563200e-002 -2.002407e-003
3330189000 2.311662e-002 1.986500e-002 -5.313420e-001 -7.777452e-001 -5.516496e-001 -7.754546e-001 -1.003423e-002 -1.932190e-002
3375187500 4.631571e-003 -1.848309e-002 -6.389769e-001 -7.175412e-001 -6.442455e-001 -7.257766e-001 9.293776e-004 -3.581419e-003
3420186000 2.811864e-002 7.763336e-003 -6.966683e-001 -6.430138e-001 -7.086079e-001 -6.395141e-001 -8.926938e-003 -2.219228e-002
3465184500 -5.605391e-003 -1.393982e-002 -7.845469e-001 -5.379972e-001 -7.991598e-001 -5.517244e-001 -1.392229e-003 -1.247355e-002
3510183000 1.859880e-002 -2.088430e-002 -8.253036e-001 -4.651014e-001 -8.391059e-001 -4.583046e-001 8.426461e-004 -2.352760e-002
3555181500 6.176270e-003 -2.881238e-002 -8.753903e-001 -3.504781e-001 -8.920754e-001 -3.494816e-001 -5.217652e-003 -2.159601e-002
3600180000 3.763170e-002 -1.359794e-002 -9.176035e-001 -2.653707e-001 -9.241921e-001 -2.554092e-001 2.614579e-002 -1.777764e-002
3645178500 -3.387985e-003 1.459887e-003 -9.284291e-001 -1.429127e-001 -9.429054e-001 -1.414858e-001 -8.081655e-003 -3.084246e-003
3690177000 -1.870334e-003 -3.326770e-002 -9.507511e-001 -4.445166e-002 -9.568896e-001 -3.139838e-002 1.055020e-002 -1.750567e-002
3735175500 -9.230969e-003 -3.320538e-002 -9.342179e-001 6.613525e-002 -9.490405e-001 7.761645e-002 -2.803030e-002 -3.167861e-002
3780174000 1.769761e-002 -6.000279e-002 -9.349738e-001 1.767335e-001 -9.355851e-001 1.849969e-001 3.264561e-002 -5.704922e-002
3825172500 1.987043e-002 -4.523583e-003 -9.013011e-001 2.765163e-001 -9.135890e-001 2.885488e-001 7.717072e-004 -2.009948e-002
3870171000 -2.760635e-002 -3.578605e-002 -8.641609e-001 3.824923e-001 -8.700041e-001 3.905248e-001 1.746894e-002 -3.008050e-002
3915169500 7.096323e-004 -2.491588e-002 -8.087171e-001 4.734660e-001 -8.143585e-001 4.908496e-001 -3.492847e-002 -2.051588e-002
3960168000 -4.853467e-002 -4.749551e-002 -7.534810e-001 5.656359e-001 -7.606822e-001 5.687995e-001 -7.755158e-003 -6.349280e-002
4005166500 1.771036e-002 -4.695878e-002 -6.803271e-001 6.514575e-001 -6.824972e-001 6.665859e-001 -1.867793e-002 -4.429172e-002
4050165000 -4.805608e-002 -3.495342e-003 -6.058113e-001 7.237518e-001 -6.153988e-001 7.323294e-001 -7.646027e-003 -5.159712e-002
4095163500 -2.463131e-002 -6.681588e-002 -5.116556e-001 7.771942e-001 -5.063738e-001 7.915416e-001 -2.714442e-002 -3.365674e-002
4140162000 -4.535674e-002 -3.577406e-003 -4.238113e-001 8.491116e-001 -4.347567e-001 8.564261e-001 -4.870695e-002 -4.566939e-002
4185160500 -6.460409e-002 -5.741776e-002 -3.203433e-001 8.789862e-001 -3.161762e-001 8.822851e-001 -5.081622e-002 -4.605410e-002
4230159000 -3.863400e-002 3.377416e-003 -2.094870e-001 9.195540e-001 -2.113191e-001 9.404775e-001 -5.855146e-002 -2.261568e-002
4275157500 -9.745102e-002 -2.802666e-002 -1.175346e-001 9.273397e-001 -1.094692e-001 9.267431e-001 -7.355125e-002 -4.416182e-002
4320156000 -3.406031e-002 -1.734444e-002 2.427441e-003 9.398299e-001 1.555785e-002 9.558268e-001 -6.703144e-002 -6.182484e-003
4365154500 -8.882747e-002 3.005127e-002 8.871953e-002 9.382492e-001 9.584866e-002 9.338583e-001 -7.913462e-002 -3.292361e-002
4410153000 -6.284101e-002 7.227524e-005 2.113777e-001 9.056629e-001 2.280836e-001 9.127073e-001 -6.318258e-002 3.913288e-002
4455151500 -9.539145e-002 6.932708e-002 3.098108e-001 8.958365e-001 3.090540e-001 8.961199e-001 -1.191570e-001 9.172218e-003
4500150000 -8.655125e-002 -4.083275e-003 4.089517e-001 8.449095e-001 4.239983e-001 8.449104e-001 -7.433825e-002 3.468085e-002
4545148500 -4.398506e-002 8.112637e-002 5.014197e-001 7.901222e-001 5.057285e-001 7.845039e-001 -1.040605e-001 2.181296e-002
4590147000 -8.621105e-002 6.195917e-002 5.803818e-001 7.253441e-001 5.984954e-001 7.363679e-001 -4.886743e-002 6.508136e-002
4635145500 -3.788206e-002 1.024593e-001 6.645088e-001 6.466474e-001 6.660575e-001 6.637186e-001 -9.219366e-002 8.707739e-002
4680144000 -8.067060e-002 8.970829e-002 7.337185e-001 5.761779e-001 7.498168e-001 5.502148e-001 -6.243866e-002 8.428090e-002
4725142500 -4.332876e-003 9.470514e-002 7.818851e-001 4.782388e-001 7.991988e-001 5.017760e-001 -6.107401e-002 1.034888e-001
4770141000 -2.904507e-002 1.271274e-001 8.457322e-001 3.981982e-001 8.358684e-001 3.841699e-001 -4.692067e-002 9.883739e-002
4815139500 3.522535e-003 1.039033e-001 8.655093e-001 2.937839e-001 9.073704e-001 2.977467e-001 -8.757025e-003 1.248406e-001
4860138000 1.187003e-003 1.400875e-001 9.160898e-001 1.855076e-001 8.906721e-001 1.917220e-001 -2.781024e-002 1.279715e-001
4905136500 2.663674e-002 1.024279e-001 9.155309e-001 1.107383e-001 9.527621e-001 7.872740e-002 4.095136e-002 1.130592e-001
4950135000 6.960678e-002 1.504424e-001 9.335147e-001 -3.882537e-002 9.294755e-001 -4.714348e-003 1.014060e-002 1.498009e-001
4995133500 4.867452e-002 1.090037e-001 9.153461e-001 -9.131481e-002 9.187700e-001 -1.577010e-001 6.895074e-002 9.239030e-002
5040132000 1.112815e-001 1.203841e-001 8.774623e-001 -2.409792e-001 9.058672e-001 -2.083213e-001 4.098342e-002 1.444265e-001
5085130500 7.594422e-002 9.342141e-002 8.840861e-001 -3.143821e-001 8.484097e-001 -3.554477e-001 8.827172e-002 6.740042e-002
5130129000 1.430960e-001 7.852990e-002 7.941800e-001 -4.166479e-001 8.426290e-001 -4.203324e-001 9.935024e-002 1.343014e-001
5175127500 9.288944e-002 9.071760e-002 7.765972e-001 -5.241357e-001 7.320675e-001 -5.276327e-001 1.041782e-001 5.431245e-002
5220126000 1.361039e-001 2.426257e-002 6.869620e-001 -5.753010e-001 7.242373e-001 -6.152748e-001 1.171016e-001 8.920013e-002
5265124500 1.273059e-001 5.601066e-002 6.184767e-001 -6.896543e-001 6.041965e-001 -6.657292e-001 1.086603e-001 2.369337e-002
5310123000 1.451273e-001 -8.248719e-003 5.658165e-001 -7.147436e-001 5.553161e-001 -7.620301e-001 1.414172e-001 4.230493e-002
5355121500 1.422183e-001 2.793416e-002 4.239533e-001 -8.071548e-001 4.589337e-001 -7.917582e-001 1.095858e-001 3.052148e-002
5400120000 9.050807e-002 -3.242496e-002 3.911627e-001 -8.383216e-001 3.421955e-001 -8.731630e-001 1.221251e-001 -1.680755e-002
5445118500 1.438659e-001 -4.137406e-002 2.411271e-001 -8.700813e-001 2.769963e-001 -8.826148e-001 1.205836e-001 9.166446e-003
5490117000 8.764007e-002 -3.368025e-002 1.947509e-001 -9.158567e-001 1.417886e-001 -9.105396e-001 8.850423e-002 -5.471576e-002
5535115500 1.230073e-001 -7.331926e-002 4.682555e-002 -9.003674e-001 6.742547e-002 -9.369792e-001 1.206290e-001 -1.009255e-002
5580114000 6.572038e-002 -2.636388e-002 -4.419903e-002 -9.378557e-001 -6.847792e-002 -9.204407e-001 3.287454e-002 -6.160331e-002
5625112500 5.900314e-002 -1.102062e-001 -1.459540e-001 -8.922284e-001 -1.665948e-001 -9.257111e-001 1.063379e-001 -4.505171e-002
5670111000 7.873482e-002 -5.007869e-002 -2.653591e-001 -9.013088e-001 -2.598270e-001 -8.777722e-001 1.805325e-002 -5.965791e-002
5715109500 7.248146e-003 -9.077176e-002 -3.429432e-001 -8.501997e-001 -3.789969e-001 -8.498434e-001 8.785154e-002 -5.109732e-002
5760108000 4.850744e-002 -5.474473e-002 -4.692502e-001 -7.961634e-001 -4.582497e-001 -7.851352e-001 -9.254638e-003 -1.889781e-002
5805106500 -3.962397e-002 -4.560619e-002 -5.241323e-001 -7.633525e-001 -5.509400e-001 -7.199686e-001 2.872671e-002 -5.951247e-002
5850105000 2.556467e-002 -7.455194e-002 -6.269236e-001 -6.585523e-001 -6.263759e-001 -6.617092e-001 4.503954e-003 -1.771281e-002
5895103500 -2.921792e-002 1.455964e-002 -6.865034e-001 -5.994936e-001 -6.908058e-001 -5.728956e-001 4.545052e-003 -2.833473e-002
5940102000 -2.121972e-002 -5.859528e-002 -7.469040e-001 -4.934167e-001 -7.624965e-001 -5.051082e-001 7.073028e-003 1.392249e-003
5985100500 -3.576119e-003 2.878869e-002 -8.097253e-001 -4.091407e-001 -8.279120e-001 -4.150463e-001 -1.592815e-002 1.719701e-002
6030099000 -4.303782e-002 -2.356559e-002 -8.312013e-001 -3.058239e-001 -8.434567e-001 -3.076955e-001 1.845882e-002 -3.772455e-003
6075097500 3.027288e-002 4.184991e-002 -8.651110e-001 -2.183505e-001 -8.821026e-001 -2.318491e-001 -5.639596e-003 7.012788e-002
6120096000 -6.512495e-002 5.693968e-002 -8.917416e-001 -1.216188e-001 -9.010939e-001 -1.354436e-001 9.104273e-003 6.145945e-003
6165094500 1.587747e-002 1.957322e-002 -8.881703e-001 -1.771753e-002 -9.243709e-001 -4.915177e-003 3.157454e-002 9.254282e-002
6210093000 -1.597410e-002 8.739197e-002 -8.897254e-001 7.715994e-002 -9.043242e-001 7.162736e-002 1.920728e-002 1.294384e-002
6255091500 2.755712e-002 2.436745e-002 -8.805018e-001 1.756746e-001 -8.910785e-001 2.112672e-001 9.224135e-002 1.034316e-001
6300090000 5.892196e-002 1.300636e-001 -8.419634e-001 2.837289e-001 -8.695850e-001 2.808448e-001 2.413467e-002 6.443430e-002
6345088500 5.623574e-003 5.159170e-002 -8.164653e-001 3.781617e-001 -7.938557e-001 4.063033e-001 9.941936e-002 7.095107e-002
6390087000 1.018575e-001 8.860430e-002 -7.536385e-001 4.513312e-001 -7.876520e-001 4.765877e-001 6.710814e-002 6.085672e-002
6435085500 2.921300e-002 6.911089e-002 -7.145824e-001 5.525761e-001 -6.825503e-001 5.580000e-001 1.302198e-001 3.432640e-002
6480084000 1.379594e-001 5.413568e-002 -6.437838e-001 6.017492e-001 -6.477467e-001 6.539725e-001 1.360692e-001 6.803226e-002
6525082500 7.617275e-002 9.382151e-002 -5.599012e-001 6.847976e-001 -5.508147e-001 7.029641e-001 1.019912e-001 3.479542e-002
6570081000 1.339046e-001 2.537383e-002 -4.868687e-001 7.424051e-001 -4.775728e-001 7.600293e-001 1.617160e-001 1.966262e-002
6615079500 1.114711e-001 7.314301e-002 -4.003955e-001 7.752435e-001 -3.875619e-001 8.097467e-001 1.048280e-001 8.243878e-003
6660078000 1.233383e-001 -4.831286e-003 -2.902196e-001 8.266999e-001 -2.892577e-001 8.332431e-001 1.853257e-001 -3.553605e-002
6705076500 1.487661e-001 2.893646e-002 -2.320938e-001 8.719921e-001 -1.970628e-001 8.843706e-001 1.237568e-001 6.650808e-003
6750075000 1.312476e-001 -1.436412e-002 -9.461123e-002 8.555371e-001 -9.367373e-002 8.783829e-001 1.722977e-001 -7.778378e-002
6795073500 1.556450e-001 -1.098006e-002 -8.959516e-003 8.993872e-001 1.517701e-002 8.914653e-001 1.223830e-001 -1.251281e-002
6840072000 1.296214e-001 -2.248058e-002 7.279703e-002 8.509373e-001 8.522296e-002 8.842067e-001 1.383518e-001 -1.047655e-001
6885070500 1.341189e-001 -5.916877e-002 2.099181e-001 8.837712e-001 2.167315e-001 8.723471e-001 1.199034e-001 -5.484801e-002
