!Agilent Technologies,E8358A,US40210021,A.06.04.30
!Agilent E8358A: A.06.04.30
!Date: Sunday, April 15, 2018 12:15:02
!Correction: S11(Full 2 Port(1,2)) S21(Full 2 Port(1,2)) S12(Full 2 Port(1,2)) S22(Full 2 Port(1,2)) 
!S2P File: Measurements: S11, S21, S12, S22:
# Hz S  RI   R 50
300000 9.949164e-001 -1.275238e-002 2.723579e-005 2.055020e-003 -5.614513e-006 2.017601e-003 1.006955e+000 -8.750691e-003
45298500 8.851607e-001 -3.623744e-001 1.070063e-001 2.574922e-001 1.082247e-001 2.601051e-001 8.933844e-001 -3.621542e-001
90297000 6.300643e-001 -5.896626e-001 3.374283e-001 3.644653e-001 3.426253e-001 3.676444e-001 6.385277e-001 -5.895217e-001
135295500 3.824461e-001 -6.572121e-001 5.630409e-001 3.238975e-001 5.692931e-001 3.253435e-001 3.776956e-001 -6.595243e-001
180294000 1.668212e-001 -6.281880e-001 7.256184e-001 1.900143e-001 7.375813e-001 1.897587e-001 1.758282e-001 -6.353444e-001
225292500 2.888149e-002 -5.668476e-001 8.190969e-001 3.086418e-002 8.312832e-001 3.119215e-002 2.485990e-002 -5.674122e-001
270291000 -8.510464e-002 -4.803757e-001 8.506325e-001 -1.393954e-001 8.609981e-001 -1.434230e-001 -6.922924e-002 -4.879111e-001
315289500 -1.422794e-001 -4.238993e-001 8.383646e-001 -2.949871e-001 8.464947e-001 -2.982698e-001 -1.496722e-001 -4.144547e-001
360288000 -1.806840e-001 -3.375593e-001 7.937011e-001 -4.449509e-001 7.985209e-001 -4.545893e-001 -1.777911e-001 -3.510751e-001
405286500 -2.136756e-001 -2.934919e-001 7.270867e-001 -5.693361e-001 7.338812e-001 -5.776019e-001 -2.132724e-001 -2.877339e-001
450285000 -2.056972e-001 -2.196439e-001 6.424916e-001 -6.896669e-001 6.509176e-001 -6.951870e-001 -2.077275e-001 -2.276625e-001
495283500 -2.427681e-001 -1.759093e-001 5.456224e-001 -7.619358e-001 5.466672e-001 -7.760956e-001 -2.365507e-001 -1.746653e-001
540282000 -2.153639e-001 -1.423717e-001 4.268607e-001 -8.517097e-001 4.346444e-001 -8.586030e-001 -2.200601e-001 -1.348006e-001
585280500 -2.385965e-001 -8.141500e-002 3.218948e-001 -9.034976e-001 3.169793e-001 -9.099903e-001 -2.419088e-001 -9.915268e-002
630279000 -2.288600e-001 -8.277290e-002 1.941231e-001 -9.315898e-001 1.988560e-001 -9.532593e-001 -2.112735e-001 -7.081489e-002
675277500 -2.079188e-001 -3.047026e-002 7.040554e-002 -9.606400e-001 6.688967e-002 -9.644716e-001 -2.278077e-001 -4.203014e-002
720276000 -2.110092e-001 -2.345425e-002 -4.901065e-002 -9.617612e-001 -5.799203e-002 -9.795971e-001 -1.836297e-001 -1.812852e-002
765274500 -1.743449e-001 1.804296e-002 -1.762750e-001 -9.536788e-001 -1.780687e-001 -9.614179e-001 -2.007278e-001 1.621916e-002
810273000 -1.927338e-001 4.850901e-002 -2.900540e-001 -9.277893e-001 -2.960527e-001 -9.388793e-001 -1.644726e-001 4.289909e-002
855271500 -1.763407e-001 5.012826e-002 -4.053246e-001 -8.730738e-001 -4.110015e-001 -8.843042e-001 -1.929457e-001 5.485934e-002
900270000 -1.673334e-001 5.954907e-002 -5.148101e-001 -8.288919e-001 -5.250050e-001 -8.355271e-001 -1.481813e-001 5.768977e-002
945268500 -1.295385e-001 6.872697e-002 -6.135627e-001 -7.575275e-001 -6.262926e-001 -7.633615e-001 -1.495851e-001 6.368338e-002
990267000 -1.168826e-001 9.772585e-002 -7.001052e-001 -6.867915e-001 -7.089846e-001 -6.928856e-001 -9.198217e-002 9.638929e-002
1035265500 -9.891890e-002 1.141817e-001 -7.731350e-001 -5.916111e-001 -7.877275e-001 -5.927747e-001 -1.181514e-001 1.106191e-001
1080264000 -1.087209e-001 1.269474e-001 -8.469012e-001 -4.913280e-001 -8.553567e-001 -4.974141e-001 -8.563380e-002 1.260507e-001
1125262500 -7.650973e-002 1.007677e-001 -9.032751e-001 -3.892427e-001 -9.142557e-001 -3.855233e-001 -1.018370e-001 1.019592e-001
1170261000 -6.061448e-002 1.341091e-001 -9.407741e-001 -2.759913e-001 -9.538700e-001 -2.805858e-001 -4.144104e-002 1.208865e-001
1215259500 -4.709265e-002 9.917457e-002 -9.752672e-001 -1.634546e-001 -9.833604e-001 -1.584421e-001 -5.225334e-002 1.089052e-001
1260258000 3.585535e-003 1.370127e-001 -9.784704e-001 -4.687160e-002 -9.907153e-001 -4.118746e-002 -3.611691e-003 1.383138e-001
1305256500 -2.532269e-002 1.206798e-001 -9.882569e-001 7.192163e-002 -9.949251e-001 7.703232e-002 -2.160208e-002 1.083969e-001
1350255000 4.173064e-002 1.164474e-001 -9.640710e-001 1.836492e-001 -9.735776e-001 1.916093e-001 2.817448e-002 1.387269e-001
1395253500 -3.380676e-003 1.453288e-001 -9.382890e-001 3.089809e-001 -9.469194e-001 3.133446e-001 4.197320e-003 1.019924e-001
1440252000 3.702136e-002 6.259859e-002 -8.996489e-001 4.147536e-001 -9.025463e-001 4.168138e-001 4.557808e-002 1.181247e-001
1485250500 6.993418e-002 1.151321e-001 -8.432605e-001 5.158063e-001 -8.472869e-001 5.220686e-001 3.783463e-002 6.646447e-002
1530249000 5.525494e-002 5.245160e-002 -7.770701e-001 6.146280e-001 -7.801992e-001 6.185511e-001 9.237734e-002 9.799313e-002
1575247500 1.219419e-001 9.580446e-002 -6.955793e-001 7.022847e-001 -7.001780e-001 7.063092e-001 7.144170e-002 6.671982e-002
1620246000 3.210278e-002 7.450191e-002 -6.092245e-001 7.776776e-001 -6.113816e-001 7.891777e-001 8.028740e-002 8.938538e-002
1665244500 1.071157e-001 1.044382e-002 -5.118995e-001 8.450683e-001 -5.174310e-001 8.502775e-001 6.381520e-002 1.969406e-002
1710243000 7.480311e-002 4.368323e-002 -4.144982e-001 8.961377e-001 -4.122009e-001 9.074048e-001 9.272588e-002 2.998671e-002
1755241500 1.038412e-001 -2.838066e-002 -2.977586e-001 9.347006e-001 -3.066679e-001 9.442665e-001 1.019796e-001 -1.118376e-002
1800240000 1.082973e-001 2.805232e-002 -1.851344e-001 9.680556e-001 -1.800824e-001 9.741012e-001 9.325189e-002 3.112973e-002
1845238500 6.091166e-002 -2.330325e-002 -7.007336e-002 9.772424e-001 -7.551870e-002 9.890341e-001 7.662755e-002 -2.509585e-002
1890237000 9.267886e-002 -2.734906e-002 4.070762e-002 9.873522e-001 5.047753e-002 9.899713e-001 6.299356e-002 -5.581364e-003
1935235500 4.861793e-002 -3.920866e-002 1.559113e-001 9.701984e-001 1.580564e-001 9.808625e-001 7.195242e-002 -6.288680e-002
1980234000 7.011674e-002 -7.140293e-002 2.767892e-001 9.437004e-001 2.814051e-001 9.471172e-001 5.768382e-002 -2.458618e-002
2025232500 5.509262e-002 -5.204130e-002 3.737359e-001 8.989730e-001 3.755224e-001 9.162095e-001 6.117134e-002 -7.538727e-002
2070231000 5.181577e-002 -6.998809e-002 4.836864e-001 8.543476e-001 4.825125e-001 8.579982e-001 4.142750e-002 -3.537165e-002
2115229500 2.790691e-002 -4.610037e-002 5.693021e-001 7.953932e-001 5.834120e-001 8.067047e-001 3.963903e-002 -6.829381e-002
2160228000 9.169788e-003 -7.181627e-002 6.692928e-001 7.116638e-001 6.714535e-001 7.216110e-001 4.066458e-003 -3.062274e-002
2205226500 -1.013535e-002 -6.603900e-002 7.369411e-001 6.415663e-001 7.551630e-001 6.437721e-001 1.724575e-003 -7.500526e-002
2250225000 8.600523e-003 -9.864988e-002 8.112616e-001 5.481491e-001 8.143535e-001 5.591179e-001 -5.026059e-003 -6.247494e-002
2295223500 5.412269e-003 -3.781020e-002 8.664495e-001 4.460084e-001 8.808390e-001 4.413098e-001 2.361613e-002 -6.077154e-002
2340222000 -2.279144e-002 -6.404469e-002 9.113201e-001 3.377891e-001 9.230765e-001 3.526023e-001 -1.321671e-002 -2.264200e-002
2385220500 -2.011774e-002 -1.907223e-002 9.456819e-001 2.358674e-001 9.548265e-001 2.236722e-001 -1.268205e-002 -2.498288e-002
2430219000 -6.924903e-002 -5.847961e-002 9.688597e-001 1.312231e-001 9.820187e-001 1.342913e-001 -5.624310e-002 -3.798772e-002
2475217500 -6.319898e-003 -4.642760e-002 9.726232e-001 1.125267e-002 9.758337e-001 5.440689e-003 3.419846e-003 -4.798969e-002
2520216000 -4.518687e-002 -1.075108e-002 9.622299e-001 -1.014591e-001 9.835532e-001 -1.042904e-001 -2.592977e-002 -2.127980e-002
2565214500 -1.401908e-002 -3.988796e-002 9.472303e-001 -2.107007e-001 9.551976e-001 -2.131672e-001 8.655652e-003 -1.178094e-002
2610213000 -2.807374e-002 3.214649e-002 9.134910e-001 -3.140334e-001 9.269421e-001 -3.277988e-001 -4.566463e-002 3.111315e-003
2655211500 -5.315720e-002 -2.899221e-002 8.719046e-001 -4.271542e-001 8.805627e-001 -4.272464e-001 -6.675862e-003 -1.487419e-002
2700210000 -1.325178e-004 2.301076e-002 8.087716e-001 -5.154142e-001 8.201294e-001 -5.316994e-001 -3.286156e-002 -3.650490e-004
2745208500 -6.539145e-002 -1.524816e-002 7.485280e-001 -6.132033e-001 7.599190e-001 -6.206755e-001 -2.796249e-003 -1.003340e-002
2790207000 3.708207e-002 -1.189915e-002 6.711044e-001 -6.877514e-001 6.723855e-001 -7.038459e-001 -1.235996e-002 -6.237250e-003
2835205500 -2.784490e-002 3.693484e-002 5.809922e-001 -7.675161e-001 5.909643e-001 -7.740898e-001 1.529214e-002 4.754670e-003
2880204000 1.692521e-002 -6.010719e-003 4.981938e-001 -8.213547e-001 4.970955e-001 -8.341124e-001 1.199519e-003 9.085157e-003
2925202500 -2.403450e-002 4.726064e-002 3.870361e-001 -8.765936e-001 3.953512e-001 -8.886252e-001 -7.598677e-003 2.369699e-002
2970201000 -1.467519e-002 -4.443973e-002 2.938617e-001 -9.158276e-001 2.918068e-001 -9.223318e-001 -1.636157e-002 -2.585191e-002
3015199500 4.356199e-002 5.048252e-003 1.879809e-001 -9.420669e-001 1.866221e-001 -9.519351e-001 2.002239e-002 -7.137195e-003
3060198000 2.617313e-003 -8.582303e-003 7.438361e-002 -9.532338e-001 6.409267e-002 -9.762240e-001 2.060475e-002 -2.062841e-002
3105196500 4.401775e-002 8.817282e-003 -3.776712e-002 -9.480887e-001 -2.576520e-002 -9.611679e-001 2.543701e-002 3.882888e-002
3150195000 -2.321130e-002 8.412625e-003 -1.414299e-001 -9.404806e-001 -1.647930e-001 -9.463143e-001 -1.288644e-002 -1.323766e-002
3195193500 2.727815e-002 -4.499136e-002 -2.513712e-001 -9.228862e-001 -2.482705e-001 -9.373481e-001 1.257131e-002 7.368636e-004
3240192000 1.269456e-002 -4.481108e-003 -3.484433e-001 -8.850031e-001 -3.621542e-001 -8.777426e-001 1.103816e-002 -4.000738e-002
3285190500 2.116422e-002 -4.313831e-002 -4.567831e-001 -8.369046e-001 -4.648730e-001 -8.566946e-001 4.401251e-002 7.787605e-003
3330189000 1.983872e-002 -2.595586e-003 -5.435527e-001 -7.839019e-001 -5.505865e-001 -7.718685e-001 1.003039e-002 -1.247577e-002
3375187500 9.294790e-004 -4.339603e-002 -6.302079e-001 -7.056149e-001 -6.500352e-001 -7.198742e-001 2.328161e-002 1.161466e-003
3420186000 2.314607e-002 -1.665480e-002 -7.108430e-001 -6.409467e-001 -7.067535e-001 -6.375750e-001 1.407079e-002 -2.074648e-002
3465184500 -1.157887e-002 -3.915499e-002 -7.703929e-001 -5.343639e-001 -8.036218e-001 -5.440329e-001 2.260183e-002 -1.431208e-002
3510183000 9.208123e-003 -4.271179e-002 -8.392132e-001 -4.531003e-001 -8.378125e-001 -4.564634e-001 2.437634e-002 -2.955993e-002
3555181500 -9.121640e-003 -5.511265e-002 -8.658549e-001 -3.537277e-001 -8.911691e-001 -3.397893e-001 1.856264e-002 -3.137558e-002
3600180000 2.300617e-002 -3.944432e-002 -9.241134e-001 -2.447270e-001 -9.236556e-001 -2.526815e-001 4.890971e-002 -3.105103e-002
3645178500 -2.157205e-002 -2.099847e-002 -9.250445e-001 -1.527088e-001 -9.386678e-001 -1.335442e-001 1.343500e-002 -1.959504e-002
3690177000 -2.124984e-002 -5.225994e-002 -9.469511e-001 -2.450235e-002 -9.572023e-001 -2.917199e-002 2.942729e-002 -3.783261e-002
3735175500 -3.505731e-002 -4.978661e-002 -9.383386e-001 5.679936e-002 -9.433215e-001 8.281215e-002 -1.178630e-002 -5.508912e-002
3780174000 -9.371170e-003 -7.833435e-002 -9.176501e-001 1.915342e-001 -9.341457e-001 1.903103e-001 4.512554e-002 -8.233082e-002
3825172500 -6.564155e-003 -1.804228e-002 -9.119740e-001 2.746892e-001 -9.064670e-001 2.918625e-001 1.076155e-002 -4.755012e-002
3870171000 -5.599857e-002 -4.722900e-002 -8.435569e-001 3.838595e-001 -8.652680e-001 3.953939e-001 2.411416e-002 -5.928446e-002
3915169500 -2.939138e-002 -3.361416e-002 -8.173165e-001 4.808030e-001 -8.088817e-001 4.886425e-001 -3.139478e-002 -5.149733e-002
3960168000 -8.243978e-002 -5.608671e-002 -7.388387e-001 5.577406e-001 -7.539161e-001 5.742239e-001 -8.156756e-003 -9.349322e-002
4005166500 -1.481390e-002 -5.252079e-002 -6.802623e-001 6.669140e-001 -6.782552e-001 6.631327e-001 -2.387353e-002 -7.568190e-002
4050165000 -8.356605e-002 -3.973107e-003 -6.011933e-001 7.095315e-001 -6.071764e-001 7.343432e-001 -1.620481e-002 -8.278652e-002
4095163500 -6.040604e-002 -6.394723e-002 -5.014300e-001 7.906289e-001 -5.041445e-001 7.892481e-001 -4.101652e-002 -6.387863e-002
4140162000 -8.177829e-002 3.557517e-003 -4.284565e-001 8.364825e-001 -4.245745e-001 8.543854e-001 -6.497486e-002 -7.507242e-002
4185160500 -9.959079e-002 -4.687009e-002 -3.003495e-001 8.812357e-001 -3.134302e-001 8.803295e-001 -7.226980e-002 -7.266594e-002
4230159000 -7.296271e-002 2.088996e-002 -2.197046e-001 9.189022e-001 -2.052974e-001 9.348829e-001 -8.402321e-002 -4.820598e-002
4275157500 -1.307219e-001 -7.834056e-003 -9.920015e-002 9.174545e-001 -1.055693e-001 9.233738e-001 -1.017406e-001 -6.444829e-002
4320156000 -6.482200e-002 6.402987e-003 -3.257351e-003 9.446698e-001 2.041612e-002 9.478786e-001 -9.904607e-002 -2.539350e-002
4365154500 -1.185046e-001 5.463470e-002 9.934299e-002 9.194607e-001 9.985656e-002 9.303353e-001 -1.131045e-001 -4.708241e-002
4410153000 -8.950804e-002 3.013115e-002 2.144924e-001 9.154226e-001 2.260621e-001 9.025533e-001 -1.009322e-001 2.845689e-002
4455151500 -1.212116e-001 1.019432e-001 3.075869e-001 8.758794e-001 3.129779e-001 8.883609e-001 -1.568394e-001 3.315102e-003
4500150000 -1.084879e-001 3.032291e-002 4.120934e-001 8.372723e-001 4.258439e-001 8.382058e-001 -1.140386e-001 3.563517e-002
4545148500 -6.291001e-002 1.180518e-001 5.029501e-001 7.841099e-001 5.059372e-001 7.767891e-001 -1.439780e-001 2.779576e-002
4590147000 -1.053211e-001 9.912340e-002 5.763887e-001 6.963574e-001 5.926399e-001 7.259371e-001 -8.810624e-002 7.513271e-002
4635145500 -5.016087e-002 1.440055e-001 6.791114e-001 6.566196e-001 6.645706e-001 6.562443e-001 -1.311941e-001 1.045351e-001
4680144000 -8.977558e-002 1.360787e-001 7.089457e-001 5.618349e-001 7.437734e-001 5.471030e-001 -9.799721e-002 1.076087e-001
4725142500 -9.374525e-003 1.398792e-001 8.036848e-001 4.644599e-001 7.975815e-001 4.925152e-001 -9.444363e-002 1.312605e-001
4770141000 -2.635464e-002 1.762595e-001 8.244126e-001 4.086096e-001 8.303691e-001 3.854960e-001 -7.748628e-002 1.288310e-001
4815139500 9.511014e-003 1.483657e-001 8.745964e-001 2.688659e-001 8.974944e-001 2.895143e-001 -3.294983e-002 1.593288e-001
4860138000 1.411497e-002 1.858879e-001 8.995942e-001 2.048679e-001 8.845667e-001 1.921991e-001 -5.060679e-002 1.669032e-001
4905136500 3.930726e-002 1.442638e-001 9.062216e-001 8.179224e-002 9.416023e-001 7.520232e-002 2.097448e-002 1.551178e-001
4950135000 9.289062e-002 1.883270e-001 9.367760e-001 -2.044195e-002 9.250531e-001 -4.645605e-003 -2.526917e-003 1.947127e-001
4995133500 7.052594e-002 1.424875e-001 8.878076e-001 -1.093514e-001 9.054424e-001 -1.561336e-001 6.087633e-002 1.388901e-001
5040132000 1.390958e-001 1.507271e-001 8.883421e-001 -2.314846e-001 9.000360e-001 -2.080169e-001 3.989401e-002 1.918768e-001
5085130500 1.020092e-001 1.286016e-001 8.514631e-001 -3.126586e-001 8.391242e-001 -3.470789e-001 9.303802e-002 1.169964e-001
5130129000 1.750645e-001 1.079663e-001 8.066529e-001 -4.229153e-001 8.363828e-001 -4.206771e-001 1.122176e-001 1.804863e-001
5175127500 1.310430e-001 1.244784e-001 7.537766e-001 -5.014740e-001 7.275997e-001 -5.179915e-001 1.236632e-001 1.020418e-001
5220126000 1.760279e-001 4.947440e-002 6.906589e-001 -5.937877e-001 7.151648e-001 -6.137233e-001 1.418407e-001 1.328428e-001
5265124500 1.729296e-001 8.223840e-002 6.122600e-001 -6.599908e-001 6.027582e-001 -6.562651e-001 1.400844e-001 6.560785e-002
5310123000 1.899946e-001 9.788400e-003 5.511232e-001 -7.305000e-001 5.453258e-001 -7.563730e-001 1.746728e-001 7.817733e-002
5355121500 1.968048e-001 3.937659e-002 4.389068e-001 -7.820432e-001 4.597730e-001 -7.838317e-001 1.507579e-001 6.226588e-002
5400120000 1.411724e-001 -2.687330e-002 3.654908e-001 -8.410566e-001 3.370917e-001 -8.665960e-001 1.651642e-001 1.104468e-002
5445118500 1.972003e-001 -4.428624e-002 2.634463e-001 -8.590767e-001 2.818007e-001 -8.774765e-001 1.672462e-001 3.141526e-002
5490117000 1.352796e-001 -3.555296e-002 1.714427e-001 -9.018567e-001 1.420177e-001 -8.985804e-001 1.387054e-001 -3.529120e-002
5535115500 1.704989e-001 -8.501779e-002 7.230542e-002 -8.988205e-001 7.158347e-002 -9.314550e-001 1.733865e-001 1.283240e-003
5580114000 1.140536e-001 -3.672016e-002 -5.936573e-002 -9.126074e-001 -6.512112e-002 -9.103268e-001 8.792600e-002 -5.516593e-002
5625112500 1.048704e-001 -1.280832e-001 -1.286929e-001 -9.063783e-001 -1.614964e-001 -9.225432e-001 1.612797e-001 -4.766039e-002
5670111000 1.273427e-001 -6.715156e-002 -2.605937e-001 -8.700208e-001 -2.495341e-001 -8.699952e-001 7.383442e-002 -6.716464e-002
5715109500 4.959666e-002 -1.143958e-001 -3.415181e-001 -8.674135e-001 -3.765203e-001 -8.437474e-001 1.405839e-001 -6.756952e-002
5760108000 9.550657e-002 -8.647947e-002 -4.459599e-001 -7.738320e-001 -4.474239e-001 -7.824357e-001 4.336817e-002 -4.190112e-002
5805106500 2.219444e-003 -8.191191e-002 -5.358556e-001 -7.760022e-001 -5.489007e-001 -7.176226e-001 7.520275e-002 -8.918977e-002
5850105000 6.533434e-002 -1.178150e-001 -5.938352e-001 -6.477673e-001 -6.161028e-001 -6.630036e-001 5.142510e-002 -5.388358e-002
5895103500 1.624170e-003 -3.085684e-002 -7.040002e-001 -5.980559e-001 -6.876681e-001 -5.704026e-001 4.278662e-002 -6.842159e-002
5940102000 4.446635e-003 -1.104008e-001 -7.171162e-001 -5.069904e-001 -7.547268e-001 -5.114739e-001 4.207148e-002 -4.787438e-002
5985100500 1.538103e-002 -2.454745e-002 -8.147615e-001 -3.914245e-001 -8.188650e-001 -4.157416e-001 1.106064e-002 -3.288312e-002
6030099000 -2.980332e-002 -7.774054e-002 -8.188057e-001 -3.298382e-001 -8.393509e-001 -3.129044e-001 3.717995e-002 -5.932415e-002
6075097500 3.806749e-002 -1.239201e-002 -8.533891e-001 -2.015162e-001 -8.773778e-001 -2.349370e-001 9.202856e-003 1.490483e-002
6120096000 -6.187638e-002 1.163871e-004 -9.061297e-001 -1.459958e-001 -9.022328e-001 -1.433589e-001 1.290920e-002 -5.198359e-002
6165094500 1.800080e-002 -3.505440e-002 -8.642052e-001 -1.552119e-002 -9.193036e-001 -1.328874e-002 3.132661e-002 3.157311e-002
6210093000 -2.052582e-002 3.100786e-002 -9.089725e-001 7.136192e-002 -9.045560e-001 6.854063e-002 8.988043e-003 -4.423801e-002
6255091500 1.792444e-002 -3.142956e-002 -8.604202e-001 1.588057e-001 -8.903962e-001 2.029534e-001 7.572773e-002 4.455029e-002
6300090000 4.299412e-002 7.523102e-002 -8.594102e-001 2.971359e-001 -8.721224e-001 2.799238e-001 1.118926e-003 1.245234e-002
6345088500 -1.183677e-002 -2.264029e-003 -8.096100e-001 3.484840e-001 -8.004081e-001 3.966029e-001 6.659064e-002 1.877672e-002
6390087000 7.731660e-002 4.009933e-002 -7.554887e-001 4.702966e-001 -7.853839e-001 4.755753e-001 3.200018e-002 1.434659e-002
6435085500 -2.199133e-003 1.979309e-002 -7.272261e-001 5.261711e-001 -6.915562e-001 5.531795e-001 8.534407e-002 -6.319479e-003
6480084000 1.018636e-001 7.171485e-003 -6.294640e-001 6.168793e-001 -6.471938e-001 6.530150e-001 8.871087e-002 3.241974e-002
6525082500 3.513055e-002 5.142048e-002 -5.668274e-001 6.825379e-001 -5.585307e-001 7.015540e-001 4.960455e-002 6.418098e-003
6570081000 8.889339e-002 -1.309111e-002 -4.903073e-001 7.404193e-001 -4.824142e-001 7.615947e-001 1.061513e-001 -1.709594e-003
6615079500 6.090615e-002 3.875615e-002 -4.034561e-001 7.749325e-001 -3.857001e-001 7.887430e-001 4.507471e-002 -8.104471e-003
6660078000 7.391070e-002 -3.544890e-002 -2.938165e-001 8.306460e-001 -2.836422e-001 8.566838e-001 1.247031e-001 -4.458990e-002
6705076500 9.346861e-002 6.640035e-003 -2.358261e-001 8.671547e-001 -2.228549e-001 8.755556e-001 6.200467e-002 4.597077e-003
6750075000 7.310201e-002 -3.433169e-002 -9.432343e-002 8.621472e-001 -7.394724e-002 8.810821e-001 1.146972e-001 -6.726389e-002
6795073500 9.859623e-002 -2.184384e-002 -1.394903e-002 9.002949e-001 -4.786505e-003 9.090705e-001 6.552226e-002 4.715691e-003
6840072000 6.776911e-002 -2.929999e-002 7.324813e-002 8.558014e-001 9.466455e-002 8.695613e-001 8.427548e-002 -8.321922e-002
6885070500 7.475983e-002 -6.028945e-002 2.048915e-001 8.865488e-001 2.130108e-001 9.007445e-001 7.223155e-002 -2.701745e-002
