!Agilent Technologies,E8358A,US40210021,A.06.04.30
!Agilent E8358A: A.06.04.30
!Date: Sunday, April 15, 2018 12:16:27
!Correction: S11(Full 2 Port(1,2)) S21(Full 2 Port(1,2)) S12(Full 2 Port(1,2)) S22(Full 2 Port(1,2)) 
!S2P File: Measurements: S11, S21, S12, S22:
# Hz S  RI   R 50
300000 -8.034981e-001 9.559716e-002 1.897244e-001 9.268042e-002 1.905408e-001 9.435558e-002 -8.103967e-001 9.547108e-002
45298500 -3.189582e-002 6.559131e-002 9.404853e-001 -4.993663e-002 9.516544e-001 -5.370745e-002 -3.328275e-002 6.237410e-002
90297000 -3.236299e-002 4.939786e-002 9.351408e-001 -1.793282e-001 9.443707e-001 -1.818162e-001 -2.771918e-002 4.853318e-002
135295500 -2.039509e-002 4.037143e-002 9.113597e-001 -2.911963e-001 9.203429e-001 -2.974522e-001 -2.371736e-002 4.666118e-002
180294000 -1.607872e-002 3.698525e-002 8.721939e-001 -3.961632e-001 8.808401e-001 -4.045520e-001 -1.257397e-002 3.261304e-002
225292500 2.327949e-003 3.502256e-002 8.171081e-001 -4.999580e-001 8.281904e-001 -5.077267e-001 -2.914817e-003 3.968105e-002
270291000 -3.992460e-003 4.709516e-002 7.539685e-001 -5.934859e-001 7.625512e-001 -5.988930e-001 5.553976e-003 3.367254e-002
315289500 1.968831e-005 2.465513e-002 6.835742e-001 -6.784819e-001 6.901563e-001 -6.857907e-001 -2.222669e-003 4.142475e-002
360288000 1.085284e-002 3.479169e-002 6.008479e-001 -7.502729e-001 6.039392e-001 -7.608856e-001 7.077070e-003 2.055024e-002
405286500 3.852564e-003 1.495904e-002 5.086671e-001 -8.160200e-001 5.136041e-001 -8.268358e-001 5.082477e-003 2.442661e-002
450285000 3.064977e-002 2.236238e-002 4.123534e-001 -8.732454e-001 4.178298e-001 -8.820584e-001 2.559628e-002 1.172734e-002
495283500 6.267127e-003 2.190579e-002 3.093771e-001 -9.054345e-001 3.092123e-001 -9.165745e-001 1.238321e-002 2.607637e-002
540282000 3.042952e-002 6.552900e-003 1.976581e-001 -9.440039e-001 2.020123e-001 -9.542786e-001 2.588561e-002 1.031734e-002
585280500 1.203686e-002 2.570338e-002 9.677364e-002 -9.624652e-001 9.670778e-002 -9.665840e-001 4.091911e-003 1.740269e-002
630279000 1.144478e-002 -4.599768e-003 -1.571625e-002 -9.596185e-001 -2.115055e-002 -9.755922e-001 2.458668e-002 -1.939915e-003
675277500 1.875026e-002 7.083164e-003 -1.277227e-001 -9.590274e-001 -1.254114e-001 -9.675754e-001 2.229977e-003 4.897509e-003
720276000 1.124024e-002 -1.167090e-002 -2.325651e-001 -9.319454e-001 -2.456258e-001 -9.407538e-001 3.081346e-002 -1.234729e-002
765274500 3.082684e-002 8.353811e-005 -3.424173e-001 -9.042599e-001 -3.472893e-001 -9.128038e-001 6.673346e-003 4.737701e-003
810273000 9.795074e-003 1.098785e-002 -4.466036e-001 -8.580050e-001 -4.510410e-001 -8.661421e-001 2.921470e-002 4.530412e-004
855271500 2.266398e-003 3.098967e-003 -5.387791e-001 -8.005592e-001 -5.450008e-001 -8.095860e-001 -1.525482e-002 8.808287e-003
900270000 -5.693805e-003 -1.117162e-002 -6.294299e-001 -7.364784e-001 -6.384835e-001 -7.423301e-001 9.818586e-003 -1.470856e-002
945268500 1.613935e-002 -1.506642e-002 -7.096273e-001 -6.600248e-001 -7.181277e-001 -6.641171e-001 -1.008187e-002 -1.589675e-002
990267000 1.160500e-002 -2.335677e-003 -7.813345e-001 -5.761624e-001 -7.898572e-001 -5.814810e-001 3.374281e-002 -7.848960e-003
1035265500 2.233430e-002 6.638428e-003 -8.419393e-001 -4.826989e-001 -8.525574e-001 -4.853552e-001 -5.949289e-003 9.253248e-003
1080264000 -9.418929e-003 1.987654e-002 -8.939210e-001 -3.819509e-001 -9.034297e-001 -3.843444e-001 1.119700e-002 1.247861e-002
1125262500 5.336686e-003 -1.825890e-002 -9.333022e-001 -2.787255e-001 -9.413222e-001 -2.785801e-001 -2.657626e-002 -7.171469e-003
1170261000 7.557801e-003 1.696113e-002 -9.605661e-001 -1.677241e-001 -9.714690e-001 -1.684230e-001 1.778208e-002 -1.610746e-003
1215259500 -1.871919e-004 -2.528851e-002 -9.757368e-001 -5.571296e-002 -9.840343e-001 -5.537988e-002 -1.014421e-002 -7.872745e-003
1260258000 4.275268e-002 1.172142e-002 -9.715322e-001 5.587517e-002 -9.829193e-001 6.098102e-002 2.755076e-002 1.449832e-002
1305256500 -4.523390e-003 -1.157030e-003 -9.638589e-001 1.678739e-001 -9.714024e-001 1.739940e-001 -8.422096e-003 -5.904987e-003
1350255000 5.220504e-002 -7.712476e-003 -9.352295e-001 2.764940e-001 -9.455038e-001 2.819259e-001 3.237831e-002 2.067622e-002
1395253500 -6.118511e-003 3.491701e-002 -8.986917e-001 3.901815e-001 -9.078367e-001 3.940675e-001 -9.759386e-003 -1.754960e-003
1440252000 1.822939e-002 -4.445051e-002 -8.484047e-001 4.887864e-001 -8.544999e-001 4.924908e-001 2.566950e-002 1.529722e-002
1485250500 4.495133e-002 9.572183e-003 -7.841488e-001 5.815974e-001 -7.868983e-001 5.888407e-001 5.386472e-004 -2.510702e-002
1530249000 1.769489e-002 -4.522729e-002 -7.118825e-001 6.713319e-001 -7.184474e-001 6.773114e-001 5.240531e-002 5.349483e-003
1575247500 8.069135e-002 3.998116e-004 -6.277949e-001 7.492766e-001 -6.355330e-001 7.515872e-001 2.014539e-002 -1.133881e-002
1620246000 -1.413927e-002 -5.017724e-003 -5.418501e-001 8.097618e-001 -5.410301e-001 8.201387e-001 2.841982e-002 1.821505e-002
1665244500 4.713766e-002 -6.362620e-002 -4.367912e-001 8.693326e-001 -4.454971e-001 8.778743e-001 2.066648e-005 -3.494777e-002
1710243000 1.304154e-002 -2.307283e-002 -3.432914e-001 9.100971e-001 -3.390830e-001 9.174946e-001 2.714753e-002 -2.034950e-002
1755241500 3.574725e-002 -8.615600e-002 -2.264107e-001 9.421217e-001 -2.318870e-001 9.586798e-001 3.136272e-002 -5.184423e-002
1800240000 3.973017e-002 -2.323920e-002 -1.199034e-001 9.648679e-001 -1.182850e-001 9.671784e-001 2.899995e-002 -1.080906e-003
1845238500 -7.435648e-003 -6.215330e-002 -5.566278e-003 9.657336e-001 -5.475168e-003 9.785058e-001 8.607934e-003 -4.462242e-002
1890237000 1.951877e-002 -5.844796e-002 1.032251e-001 9.673708e-001 1.055131e-001 9.677281e-001 -9.478831e-004 -1.694178e-002
1935235500 -2.211636e-002 -6.367315e-002 2.125205e-001 9.456554e-001 2.172053e-001 9.520077e-001 3.256827e-003 -6.574487e-002
1980234000 -2.274442e-003 -8.549369e-002 3.274880e-001 9.107711e-001 3.325570e-001 9.190420e-001 -2.237203e-003 -2.130397e-002
2025232500 -1.530187e-002 -6.397411e-002 4.188308e-001 8.649338e-001 4.185821e-001 8.778391e-001 2.022866e-003 -6.431834e-002
2070231000 -1.438537e-002 -7.277539e-002 5.222848e-001 8.115913e-001 5.253768e-001 8.171532e-001 -8.657430e-003 -1.881447e-002
2115229500 -3.620570e-002 -4.390482e-002 6.023648e-001 7.547130e-001 6.092364e-001 7.640240e-001 -7.067676e-003 -4.772194e-002
2160228000 -4.948910e-002 -6.308998e-002 6.915484e-001 6.636395e-001 6.993834e-001 6.713361e-001 -3.250601e-002 -4.963818e-003
2205226500 -6.824483e-002 -5.071778e-002 7.561640e-001 5.938324e-001 7.685019e-001 5.981748e-001 -3.331237e-002 -4.807181e-002
2250225000 -4.847673e-002 -8.345205e-002 8.251639e-001 4.999942e-001 8.295445e-001 5.073042e-001 -3.340501e-002 -3.265395e-002
2295223500 -4.366872e-002 -1.930582e-002 8.715435e-001 3.998844e-001 8.856337e-001 4.009573e-001 -2.974123e-003 -3.447711e-002
2340222000 -7.060379e-002 -4.278530e-002 9.114046e-001 2.919964e-001 9.201813e-001 2.998558e-001 -2.991317e-002 4.450562e-003
2385220500 -6.020073e-002 4.598155e-003 9.391893e-001 1.907365e-001 9.505287e-001 1.829841e-001 -2.583005e-002 1.920573e-003
2430219000 -1.107581e-001 -3.026484e-002 9.584933e-001 9.033899e-002 9.689752e-001 8.863463e-002 -6.322780e-002 -9.191559e-003
2475217500 -4.309734e-002 -2.099436e-002 9.566936e-001 -2.666612e-002 9.650293e-001 -3.078198e-002 -3.317329e-003 -2.205213e-002
2520216000 -7.942223e-002 1.689504e-002 9.431632e-001 -1.347540e-001 9.570336e-001 -1.377981e-001 -2.695012e-002 -7.244236e-004
2565214500 -4.591269e-002 -1.397927e-002 9.230913e-001 -2.395786e-001 9.313785e-001 -2.476386e-001 1.007248e-002 4.204312e-003
2610213000 -5.633603e-002 5.864579e-002 8.867589e-001 -3.390745e-001 8.985384e-001 -3.491549e-001 -4.081205e-002 1.747398e-002
2655211500 -8.092663e-002 3.585406e-004 8.421333e-001 -4.467964e-001 8.541463e-001 -4.549420e-001 -2.526679e-003 -4.962280e-003
2700210000 -2.654022e-002 5.052303e-002 7.805802e-001 -5.316153e-001 7.908822e-001 -5.428258e-001 -2.952404e-002 6.746073e-003
2745208500 -9.039631e-002 1.595290e-002 7.162380e-001 -6.243483e-001 7.254380e-001 -6.384199e-001 9.202127e-005 -8.614785e-003
2790207000 1.036787e-002 1.642319e-002 6.413313e-001 -6.947868e-001 6.459137e-001 -7.061531e-001 -1.127816e-002 -4.652504e-003
2835205500 -5.064117e-002 6.679592e-002 5.519409e-001 -7.702839e-001 5.556439e-001 -7.781620e-001 1.332643e-002 5.812217e-004
2880204000 -5.957311e-003 2.534595e-002 4.694810e-001 -8.204282e-001 4.729120e-001 -8.345372e-001 -3.088342e-003 4.757510e-003
2925202500 -4.482478e-002 8.034764e-002 3.600163e-001 -8.711707e-001 3.645279e-001 -8.822056e-001 -1.405341e-002 1.621970e-002
2970201000 -3.663844e-002 -7.798502e-003 2.692796e-001 -9.065378e-001 2.694853e-001 -9.176340e-001 -2.619679e-002 -3.079062e-002
3015199500 2.192295e-002 4.165214e-002 1.647817e-001 -9.327301e-001 1.618519e-001 -9.416500e-001 5.423295e-003 -1.343904e-002
3060198000 -1.631402e-002 3.117975e-002 4.106404e-002 -9.442127e-001 4.086430e-002 -9.536986e-001 3.279944e-003 -2.507986e-002
3105196500 2.578806e-002 5.020555e-002 -4.138070e-002 -9.392028e-001 -4.591920e-002 -9.538193e-001 7.029744e-003 3.488374e-002
3150195000 -3.731632e-002 5.157020e-002 -1.656795e-001 -9.126070e-001 -1.723792e-001 -9.225219e-001 -3.631011e-002 -1.317931e-002
3195193500 1.625567e-002 1.897903e-003 -2.604252e-001 -9.193345e-001 -2.684711e-001 -9.215367e-001 -1.456384e-002 1.616559e-003
3240192000 4.684479e-003 4.489669e-002 -3.571240e-001 -8.527327e-001 -3.632342e-001 -8.588563e-001 -1.872990e-002 -3.459297e-002
3285190500 1.438939e-002 8.884504e-003 -4.676253e-001 -8.312413e-001 -4.795679e-001 -8.374880e-001 1.269488e-002 1.633610e-002
3330189000 1.826422e-002 5.025364e-002 -5.369422e-001 -7.553222e-001 -5.477872e-001 -7.574736e-001 -2.333674e-002 1.281644e-003
3375187500 3.231143e-003 1.337242e-002 -6.419837e-001 -6.954516e-001 -6.548849e-001 -6.960899e-001 -9.077684e-003 1.972876e-002
3420186000 2.915394e-002 4.172363e-002 -6.968414e-001 -6.230092e-001 -7.038584e-001 -6.275888e-001 -1.793652e-002 4.876807e-003
3465184500 -1.171955e-003 2.059772e-002 -7.807855e-001 -5.169226e-001 -7.960454e-001 -5.196769e-001 -7.555789e-003 1.670425e-002
3510183000 2.554568e-002 1.636890e-002 -8.211958e-001 -4.459716e-001 -8.369268e-001 -4.484977e-001 -6.188699e-003 7.078497e-003
3555181500 1.612991e-002 7.285911e-003 -8.665768e-001 -3.322413e-001 -8.773771e-001 -3.237027e-001 -7.264684e-003 7.968179e-003
3600180000 5.246343e-002 2.313157e-002 -9.095141e-001 -2.492828e-001 -9.248472e-001 -2.460748e-001 2.612733e-002 1.472355e-002
3645178500 1.529479e-002 3.772227e-002 -9.167693e-001 -1.285501e-001 -9.189534e-001 -1.260386e-001 -5.188401e-003 3.016520e-002
3690177000 2.200147e-002 3.444253e-003 -9.394715e-001 -3.039926e-002 -9.544129e-001 -1.875648e-002 1.490173e-002 1.822023e-002
3735175500 1.760291e-002 2.801123e-003 -9.201956e-001 7.612917e-002 -9.246934e-001 8.206064e-002 -2.021273e-002 4.706262e-003
3780174000 4.884823e-002 -2.676562e-002 -9.205371e-001 1.849051e-001 -9.297988e-001 1.982950e-001 4.412544e-002 -1.882645e-002
3825172500 5.523165e-002 2.640370e-002 -8.871261e-001 2.821654e-001 -8.942148e-001 2.821952e-001 1.584563e-002 1.904597e-002
3870171000 1.259327e-002 -8.705455e-003 -8.474890e-001 3.866368e-001 -8.538573e-001 4.031958e-001 3.790782e-002 6.686308e-003
3915169500 4.454235e-002 5.233770e-004 -7.951421e-001 4.769811e-001 -8.034345e-001 4.842519e-001 -7.714721e-003 1.564215e-002
3960168000 -1.698901e-003 -2.703045e-002 -7.408305e-001 5.661409e-001 -7.414808e-001 5.754788e-001 2.385829e-002 -2.892306e-002
4005166500 6.877927e-002 -3.015969e-002 -6.676819e-001 6.487923e-001 -6.793934e-001 6.581193e-001 1.800009e-002 -9.620734e-003
4050165000 4.950681e-003 7.224581e-003 -5.916803e-001 7.185642e-001 -5.922850e-001 7.284209e-001 3.119443e-002 -2.235841e-002
4095163500 3.147530e-002 -6.130303e-002 -5.014678e-001 7.732558e-001 -5.058008e-001 7.913085e-001 1.757265e-002 -9.123345e-003
4140162000 1.139640e-002 -2.908217e-003 -4.130021e-001 8.421978e-001 -4.169654e-001 8.444201e-001 -8.569998e-005 -2.449820e-002
4185160500 -5.905373e-003 -6.482438e-002 -3.127918e-001 8.718527e-001 -3.120482e-001 8.834646e-001 2.795220e-003 -3.000359e-002
4230159000 1.930923e-002 -8.825292e-003 -2.023774e-001 9.068502e-001 -2.050413e-001 9.189793e-001 -4.123251e-003 -1.178009e-002
4275157500 -4.132099e-002 -4.792099e-002 -1.116697e-001 9.195979e-001 -1.018371e-001 9.277982e-001 -1.756730e-002 -4.069701e-002
4320156000 2.244701e-002 -4.198760e-002 4.760804e-003 9.255856e-001 1.169676e-002 9.384174e-001 -9.754831e-003 -8.373346e-003
4365154500 -3.691793e-002 -2.497696e-003 9.386525e-002 9.276764e-001 1.091539e-001 9.308298e-001 -2.374412e-002 -4.156917e-002
4410153000 -1.133840e-002 -3.914693e-002 2.111748e-001 8.965790e-001 2.180383e-001 9.007378e-001 -7.689590e-003 2.320563e-002
4455151500 -4.918426e-002 2.496678e-002 3.110518e-001 8.854485e-001 3.186714e-001 8.814813e-001 -6.456942e-002 -1.262366e-002
4500150000 -4.453604e-002 -5.400924e-002 4.058897e-001 8.355005e-001 4.224430e-001 8.359388e-001 -2.030784e-002 7.297108e-003
4545148500 -8.253223e-003 2.635132e-002 4.998375e-001 7.799860e-001 5.037273e-001 7.765689e-001 -5.271723e-002 -1.077543e-002
4590147000 -5.956975e-002 1.788939e-003 5.687882e-001 6.963463e-001 5.756679e-001 7.282123e-001 -2.679167e-003 2.757118e-002
4635145500 -1.512300e-002 4.154056e-002 6.805704e-001 6.495424e-001 6.746938e-001 6.415420e-001 -4.766618e-002 4.494437e-002
4680144000 -6.664878e-002 2.762787e-002 7.028980e-001 5.716948e-001 7.430011e-001 5.660141e-001 -1.718969e-002 3.586030e-002
4725142500 2.569024e-003 2.966231e-002 7.933332e-001 4.600104e-001 7.804082e-001 4.783004e-001 -2.593133e-002 5.135574e-002
4770141000 -2.608763e-002 6.390693e-002 8.271610e-001 4.114046e-001 8.476363e-001 3.893287e-001 -1.720114e-002 3.896836e-002
4815139500 -1.993370e-003 3.480611e-002 8.684373e-001 2.661874e-001 8.788424e-001 2.859534e-001 1.283864e-002 6.206105e-002
4860138000 -9.846217e-003 7.450471e-002 9.048545e-001 2.074450e-001 9.045532e-001 1.866032e-001 -1.652678e-002 6.225034e-002
4905136500 3.093757e-003 3.342329e-002 8.968506e-001 8.700147e-002 9.200431e-001 8.641452e-002 4.379623e-002 5.251054e-002
4950135000 4.055895e-002 8.195045e-002 9.427933e-001 -2.232153e-002 9.355898e-001 -2.054164e-002 1.996247e-003 8.605111e-002
4995133500 8.047039e-003 4.472582e-002 8.840696e-001 -1.006805e-001 8.992507e-001 -1.378163e-001 5.824359e-002 3.306480e-002
5040132000 6.478043e-002 6.022593e-002 8.961346e-001 -2.376592e-001 9.003426e-001 -2.283181e-001 2.345014e-002 8.803453e-002
5085130500 2.143284e-002 4.601832e-002 8.518324e-001 -3.055215e-001 8.427957e-001 -3.322358e-001 6.655136e-002 1.146112e-002
5130129000 8.460937e-002 3.621564e-002 8.045935e-001 -4.309232e-001 8.211176e-001 -4.380122e-001 7.335936e-002 8.107907e-002
5175127500 3.362523e-002 5.942902e-002 7.600940e-001 -4.957308e-001 7.408012e-001 -5.124712e-001 7.193241e-002 -1.570252e-003
5220126000 7.318179e-002 -1.496847e-003 6.840906e-001 -5.940121e-001 6.942660e-001 -6.156297e-001 8.107645e-002 3.768970e-002
5265124500 6.568503e-002 3.923610e-002 6.167536e-001 -6.633148e-001 6.129334e-001 -6.614123e-001 6.300125e-002 -2.236627e-002
5310123000 7.845058e-002 -1.874001e-002 5.427195e-001 -7.282203e-001 5.281867e-001 -7.453303e-001 9.023020e-002 -5.633750e-004
5355121500 7.946848e-002 2.299074e-002 4.434473e-001 -7.898791e-001 4.669988e-001 -8.011026e-001 5.121601e-002 -1.143600e-003
5400120000 2.470270e-002 -3.079558e-002 3.633067e-001 -8.303962e-001 3.339883e-001 -8.401839e-001 6.089557e-002 -4.038307e-002
5445118500 7.964864e-002 -3.432606e-002 2.583438e-001 -8.661318e-001 2.709986e-001 -8.924410e-001 5.823166e-002 -5.454655e-003
5490117000 2.119875e-002 -1.579349e-002 1.671953e-001 -8.957925e-001 1.467455e-001 -8.793495e-001 2.645942e-002 -6.067843e-002
5535115500 5.976893e-002 -4.954224e-002 6.388113e-002 -9.081816e-001 5.186103e-002 -9.427071e-001 6.129469e-002 -9.718020e-003
5580114000 7.094933e-003 8.192339e-003 -5.546290e-002 -9.033344e-001 -4.875868e-002 -8.956328e-001 -2.511633e-002 -4.979910e-002
5625112500 6.161692e-003 -7.065019e-002 -1.410289e-001 -9.048523e-001 -1.834043e-001 -9.130598e-001 4.838473e-002 -2.867225e-002
5670111000 3.381374e-002 -5.288550e-004 -2.569413e-001 -8.624147e-001 -2.368460e-001 -8.711172e-001 -3.332971e-002 -3.641368e-002
5715109500 -3.311035e-002 -3.908608e-002 -3.522246e-001 -8.590533e-001 -3.885803e-001 -8.246198e-001 3.836468e-002 -2.275228e-002
5760108000 2.055396e-002 -2.922702e-003 -4.420550e-001 -7.689299e-001 -4.426129e-001 -7.919865e-001 -5.054940e-002 1.365719e-002
5805106500 -6.266481e-002 7.464640e-003 -5.404556e-001 -7.571142e-001 -5.401480e-001 -6.898043e-001 -1.178427e-002 -2.202135e-002
5850105000 1.075256e-002 -2.154847e-002 -5.905747e-001 -6.458865e-001 -6.219142e-001 -6.715682e-001 -2.813231e-002 2.202262e-002
5895103500 -4.156905e-002 6.842900e-002 -6.947736e-001 -5.814928e-001 -6.638822e-001 -5.521250e-001 -2.291388e-002 1.440424e-002
5940102000 -2.800987e-002 -6.371368e-003 -7.196505e-001 -5.019470e-001 -7.652445e-001 -5.033160e-001 -1.692380e-002 4.665994e-002
5985100500 -4.887826e-003 8.291499e-002 -7.990509e-001 -3.803191e-001 -7.897663e-001 -4.115988e-001 -3.408663e-002 6.809890e-002
6030099000 -3.958037e-002 2.851953e-002 -8.228118e-001 -3.235174e-001 -8.494944e-001 -2.976600e-001 7.074902e-003 4.683584e-002
6075097500 3.961441e-002 9.293725e-002 -8.328015e-001 -2.021495e-001 -8.447981e-001 -2.456602e-001 -9.638502e-003 1.203656e-001
6120096000 -4.949296e-002 1.043682e-001 -8.942228e-001 -1.333455e-001 -8.935230e-001 -1.179616e-001 1.033411e-002 5.838375e-002
6165094500 4.064779e-002 6.448751e-002 -8.487179e-001 -1.743021e-002 -8.998106e-001 -3.067327e-002 3.972658e-002 1.389707e-001
6210093000 1.189768e-002 1.291849e-001 -8.976123e-001 8.060575e-002 -8.844572e-001 8.701912e-002 3.127776e-002 5.690854e-002
6255091500 5.650369e-002 6.102817e-002 -8.470148e-001 1.495069e-001 -8.859766e-001 1.818948e-001 1.129955e-001 1.399843e-001
6300090000 9.312343e-002 1.602040e-001 -8.353843e-001 2.923822e-001 -8.366425e-001 2.844646e-001 4.968939e-002 1.007823e-001
6345088500 4.596872e-002 7.751656e-002 -7.953984e-001 3.442307e-001 -7.960612e-001 3.840944e-001 1.254635e-001 9.868787e-002
6390087000 1.415159e-001 1.115948e-001 -7.325475e-001 4.571394e-001 -7.534900e-001 4.614733e-001 9.578350e-002 8.832524e-002
6435085500 6.959055e-002 8.835041e-002 -7.174771e-001 5.159461e-001 -6.927711e-001 5.478905e-001 1.591002e-001 5.633966e-002
6480084000 1.766928e-001 6.566332e-002 -6.147761e-001 5.948554e-001 -6.221684e-001 6.178948e-001 1.701723e-001 9.100960e-002
6525082500 1.169834e-001 1.004319e-001 -5.523396e-001 6.635363e-001 -5.448853e-001 6.798114e-001 1.367127e-001 4.912680e-002
6570081000 1.744069e-001 2.869327e-002 -4.825938e-001 7.192536e-001 -4.758990e-001 7.367990e-001 1.983391e-001 3.178802e-002
6615079500 1.528060e-001 7.211836e-002 -3.829985e-001 7.645194e-001 -3.918927e-001 7.735562e-001 1.411415e-001 1.270613e-002
6660078000 1.645803e-001 -1.118225e-002 -3.132571e-001 8.093269e-001 -2.827011e-001 8.147771e-001 2.196909e-001 -3.062759e-002
6705076500 1.906899e-001 2.156475e-002 -2.207481e-001 8.339268e-001 -2.165952e-001 8.667350e-001 1.586630e-001 1.355929e-003
6750075000 1.636997e-001 -2.738143e-002 -1.098888e-001 8.523658e-001 -9.673841e-002 8.454875e-001 2.102447e-001 -8.230010e-002
6795073500 1.915228e-001 -2.871289e-002 -2.284015e-002 8.563527e-001 7.149125e-004 8.825826e-001 1.556014e-001 -2.420682e-002
6840072000 1.597611e-001 -3.994955e-002 7.063045e-002 8.477927e-001 6.576529e-002 8.497785e-001 1.730622e-001 -1.204085e-001
6885070500 1.646693e-001 -8.411507e-002 1.741605e-001 8.544500e-001 2.065185e-001 8.670105e-001 1.509218e-001 -7.605660e-002
