!Agilent Technologies,E8358A,US40210021,A.06.04.30
!Agilent E8358A: A.06.04.30
!Date: Sunday, April 15, 2018 12:17:16
!Correction: S11(Full 2 Port(1,2)) S21(Full 2 Port(1,2)) S12(Full 2 Port(1,2)) S22(Full 2 Port(1,2)) 
!S2P File: Measurements: S11, S21, S12, S22:
# Hz S  RI   R 50
300000 4.251334e-002 -6.720469e-003 9.965439e-001 -3.109309e-003 1.009737e+000 -2.065272e-003 3.853279e-002 -3.859589e-003
45298500 1.390157e-002 7.268088e-003 9.929211e-001 -6.770828e-002 1.004121e+000 -7.113498e-002 1.277443e-002 3.230341e-003
90297000 -1.148592e-003 7.152828e-003 9.850835e-001 -1.426668e-001 9.951270e-001 -1.471164e-001 4.140670e-003 5.821531e-003
135295500 3.823789e-003 1.436701e-003 9.722465e-001 -2.154899e-001 9.822024e-001 -2.227100e-001 -3.827307e-004 7.480959e-003
180294000 3.168147e-003 1.051347e-003 9.523331e-001 -2.886460e-001 9.627808e-001 -2.969964e-001 7.681274e-003 -3.794492e-003
225292500 1.482537e-002 2.188826e-003 9.241299e-001 -3.632747e-001 9.369621e-001 -3.706093e-001 8.585289e-003 5.821025e-003
270291000 1.882524e-003 1.393750e-002 8.937544e-001 -4.336786e-001 9.034289e-001 -4.401149e-001 1.489105e-002 3.287538e-003
315289500 5.234562e-003 -9.358173e-003 8.598073e-001 -5.012271e-001 8.684987e-001 -5.076218e-001 -2.103939e-003 6.041024e-003
360288000 1.389555e-002 5.113110e-003 8.182517e-001 -5.645901e-001 8.258098e-001 -5.731876e-001 1.410918e-002 -8.761436e-003
405286500 6.235712e-003 -1.452701e-002 7.719769e-001 -6.245688e-001 7.797570e-001 -6.331350e-001 4.763644e-003 -7.197214e-003
450285000 2.903708e-002 2.807501e-003 7.185296e-001 -6.825979e-001 7.286703e-001 -6.962362e-001 2.729339e-002 -3.865378e-003
495283500 -2.430440e-003 -3.780517e-003 6.694655e-001 -7.346879e-001 6.776665e-001 -7.436571e-001 5.855649e-004 -1.996431e-003
540282000 2.777598e-002 -1.317546e-002 6.101080e-001 -7.829224e-001 6.086389e-001 -7.956121e-001 1.933792e-002 -4.217243e-003
585280500 -2.229878e-003 2.962770e-003 5.537264e-001 -8.332865e-001 5.559557e-001 -8.352045e-001 -5.148934e-003 -1.739541e-002
630279000 1.100662e-002 -3.658149e-002 4.876328e-001 -8.616443e-001 4.877879e-001 -8.833484e-001 2.147623e-002 -1.205262e-002
675277500 1.904543e-002 -6.607908e-003 4.159387e-001 -9.060782e-001 4.250012e-001 -9.131994e-001 3.148398e-004 -2.693019e-002
720276000 5.702582e-003 -3.288969e-002 3.538295e-001 -9.313088e-001 3.429817e-001 -9.476171e-001 2.565587e-002 -7.030264e-003
765274500 2.625009e-002 -4.480706e-003 2.756697e-001 -9.590581e-001 2.771854e-001 -9.698106e-001 -2.601555e-003 -2.232105e-002
810273000 -2.631751e-002 -1.625910e-002 2.002823e-001 -9.802443e-001 2.016907e-001 -9.917461e-001 1.751157e-003 -1.419749e-003
855271500 8.041745e-003 -4.538101e-002 1.241128e-001 -9.906620e-001 1.248938e-001 -1.001295e+000 -1.483525e-002 -4.586058e-002
900270000 -4.156090e-003 -2.570245e-002 4.919588e-002 -1.000671e+000 4.555514e-002 -1.012477e+000 7.075489e-003 -2.113002e-002
945268500 1.342650e-002 -4.037409e-002 -2.806686e-002 -1.000853e+000 -3.203101e-002 -1.011728e+000 9.876138e-003 -4.076147e-002
990267000 -4.325323e-003 -4.479719e-004 -1.019568e-001 -9.971741e-001 -1.053986e-001 -1.007630e+000 -7.762542e-003 9.243705e-003
1035265500 -3.397233e-002 -3.476498e-002 -1.794818e-001 -9.860424e-001 -1.854838e-001 -9.988522e-001 -1.994325e-002 -3.789484e-002
1080264000 -1.134426e-002 -3.402622e-002 -2.570224e-001 -9.733312e-001 -2.609855e-001 -9.815470e-001 -3.235724e-002 -1.725659e-002
1125262500 -2.273715e-002 -3.669437e-002 -3.292381e-001 -9.514400e-001 -3.367962e-001 -9.599898e-001 9.368711e-004 -5.543683e-002
1170261000 -7.712076e-003 -3.391650e-002 -4.046036e-001 -9.217471e-001 -4.086613e-001 -9.306524e-001 -2.411898e-002 -6.312465e-003
1215259500 -2.290582e-002 -1.684378e-002 -4.741563e-001 -8.930385e-001 -4.826407e-001 -8.981656e-001 -6.220757e-003 -3.267352e-002
1260258000 -2.711344e-002 -2.268842e-002 -5.399558e-001 -8.502933e-001 -5.503612e-001 -8.582041e-001 -4.560995e-002 -3.388774e-003
1305256500 -3.502742e-002 -1.441823e-002 -6.052523e-001 -8.121189e-001 -6.152796e-001 -8.137688e-001 -1.239789e-002 -2.786820e-002
1350255000 -4.071092e-002 -2.072008e-002 -6.639439e-001 -7.568644e-001 -6.763520e-001 -7.642630e-001 -5.669997e-002 -6.143334e-003
1395253500 -4.319181e-002 -2.815730e-002 -7.277912e-001 -7.070184e-001 -7.349887e-001 -7.139261e-001 -1.660475e-002 -2.393936e-002
1440252000 -1.701985e-002 -2.102244e-002 -7.798036e-001 -6.504312e-001 -7.857717e-001 -6.502746e-001 -4.728905e-002 -1.419593e-002
1485250500 -4.205078e-002 1.411292e-002 -8.250076e-001 -5.854768e-001 -8.321691e-001 -5.876658e-001 -8.902421e-003 8.640888e-003
1530249000 -4.388422e-002 -6.231869e-003 -8.707271e-001 -5.224260e-001 -8.799349e-001 -5.207472e-001 -6.822624e-002 5.125933e-003
1575247500 -5.712744e-002 1.258613e-002 -9.123388e-001 -4.464107e-001 -9.218822e-001 -4.474567e-001 -3.526400e-002 9.405959e-003
1620246000 -4.570025e-002 -3.255440e-002 -9.349473e-001 -3.874706e-001 -9.463109e-001 -3.895391e-001 -5.341174e-002 -2.621918e-002
1665244500 -6.446405e-003 2.462549e-002 -9.629369e-001 -2.999876e-001 -9.691322e-001 -3.004437e-001 -3.666386e-003 2.816373e-002
1710243000 -5.815903e-002 2.147516e-002 -9.861692e-001 -2.360267e-001 -9.978406e-001 -2.328322e-001 -4.419328e-002 1.110698e-002
1755241500 -2.036777e-002 1.696282e-002 -9.925489e-001 -1.420447e-001 -1.003157e+000 -1.466399e-001 -3.273863e-002 5.248680e-002
1800240000 -6.410120e-002 3.614686e-002 -1.012201e+000 -7.544466e-002 -1.019933e+000 -7.193426e-002 -5.164489e-002 -5.305805e-003
1845238500 -1.689842e-002 -1.850255e-002 -1.003979e+000 8.492896e-003 -1.017999e+000 1.507840e-003 -1.442266e-002 3.864949e-002
1890237000 -1.367190e-002 6.385092e-002 -1.008423e+000 8.203888e-002 -1.011663e+000 9.050622e-002 -1.688411e-002 1.400181e-002
1935235500 -3.854696e-002 3.422375e-004 -9.983280e-001 1.598663e-001 -1.005334e+000 1.627565e-001 -1.771549e-002 5.873021e-002
1980234000 1.578571e-002 6.567392e-002 -9.715281e-001 2.398686e-001 -9.786201e-001 2.486816e-001 -1.032554e-002 2.376520e-002
2025232500 -6.793719e-002 3.128286e-002 -9.580256e-001 3.194296e-001 -9.737492e-001 3.145447e-001 -2.515982e-002 5.430066e-002
2070231000 2.089122e-002 2.034431e-002 -9.234645e-001 3.807540e-001 -9.295369e-001 3.855761e-001 5.147191e-003 2.196969e-002
2115229500 -3.394184e-002 4.914505e-002 -8.989183e-001 4.572387e-001 -9.134272e-001 4.600865e-001 -1.932141e-002 4.089717e-002
2160228000 3.163731e-002 -7.512172e-004 -8.543859e-001 5.170331e-001 -8.596044e-001 5.228760e-001 3.832926e-002 1.916646e-002
2205226500 1.465779e-002 9.329599e-002 -8.092381e-001 5.829461e-001 -8.218319e-001 5.945438e-001 -3.817957e-004 5.718806e-002
2250225000 -2.698975e-002 1.182088e-002 -7.727427e-001 6.433728e-001 -7.764722e-001 6.499093e-001 2.328482e-002 4.232289e-002
2295223500 3.693008e-002 4.661943e-002 -7.066365e-001 6.988990e-001 -7.146239e-001 7.122872e-001 -2.011278e-002 3.264741e-002
2340222000 -1.920670e-002 7.514442e-003 -6.586859e-001 7.520026e-001 -6.702953e-001 7.601759e-001 4.273688e-002 6.764196e-003
2385220500 8.690748e-002 2.100715e-002 -5.976780e-001 7.914755e-001 -5.957664e-001 8.085696e-001 3.446480e-002 2.618000e-002
2430219000 -7.193334e-003 6.515878e-002 -5.370584e-001 8.470825e-001 -5.430624e-001 8.552712e-001 4.888174e-002 4.536944e-002
2475217500 4.628881e-002 -6.213132e-003 -4.719886e-001 8.713629e-001 -4.681147e-001 8.829463e-001 9.126542e-003 2.146533e-002
2520216000 1.495691e-002 4.598238e-002 -3.964559e-001 9.128039e-001 -4.017681e-001 9.310932e-001 2.619777e-002 1.413877e-002
2565214500 3.041018e-002 -2.984841e-002 -3.367494e-001 9.356832e-001 -3.344423e-001 9.466608e-001 3.738458e-002 -1.638687e-002
2610213000 6.174428e-002 2.962883e-002 -2.529377e-001 9.560890e-001 -2.534316e-001 9.732350e-001 4.721424e-002 2.849055e-002
2655211500 1.989212e-002 -4.951241e-003 -1.885054e-001 9.796061e-001 -1.891441e-001 9.872845e-001 3.720219e-002 -1.081137e-002
2700210000 7.235602e-002 8.320399e-003 -1.045709e-001 9.799224e-001 -9.874436e-002 9.961696e-001 3.404917e-002 2.868624e-002
2745208500 2.293488e-003 1.710955e-002 -3.396863e-002 9.956654e-001 -3.311288e-002 1.007312e+000 2.925565e-002 -2.196053e-002
2790207000 4.746937e-002 -4.171453e-002 4.360760e-002 9.840894e-001 5.335765e-002 9.963232e-001 2.662178e-002 1.163544e-002
2835205500 3.228548e-002 -2.715216e-003 1.222265e-001 9.868651e-001 1.212510e-001 1.001049e+000 3.393532e-002 -4.138441e-002
2880204000 5.780483e-002 -4.536957e-002 1.874155e-001 9.675441e-001 1.960554e-001 9.763165e-001 4.670314e-002 -2.021371e-003
2925202500 4.068540e-002 2.517523e-002 2.757032e-001 9.489091e-001 2.783456e-001 9.638172e-001 4.176476e-002 -7.286475e-003
2970201000 -2.395590e-003 -3.599692e-002 3.350474e-001 9.296818e-001 3.404119e-001 9.355614e-001 5.427910e-003 2.870650e-003
3015199500 2.897408e-002 -3.362237e-002 4.056741e-001 9.040873e-001 4.146809e-001 9.108012e-001 1.187508e-002 -3.250926e-002
3060198000 1.870965e-002 -4.854620e-002 4.882808e-001 8.693366e-001 4.864826e-001 8.831844e-001 1.673117e-002 -4.211745e-002
3105196500 5.183110e-002 -2.615854e-002 5.246743e-001 8.239652e-001 5.414877e-001 8.271242e-001 6.070895e-002 -7.735321e-003
3150195000 3.004791e-004 -7.999225e-003 6.047724e-001 7.698320e-001 6.204774e-001 7.858500e-001 3.568131e-003 -5.798924e-003
3195193500 1.303514e-002 -4.456532e-002 6.552395e-001 7.498771e-001 6.605372e-001 7.411484e-001 2.096903e-002 -4.011919e-003
3240192000 3.732584e-003 -3.019034e-002 7.022405e-001 6.701378e-001 7.231280e-001 6.792033e-001 -9.842101e-003 -4.231017e-002
3285190500 1.756783e-002 -4.867644e-002 7.702888e-001 6.361103e-001 7.713027e-001 6.336277e-001 5.170879e-002 -1.564522e-002
3330189000 1.268515e-002 -1.558307e-002 7.943109e-001 5.613376e-001 8.178143e-001 5.572268e-001 8.681754e-003 -1.583576e-002
3375187500 6.002331e-004 -4.258590e-002 8.550239e-001 5.054612e-001 8.600664e-001 5.064750e-001 3.146026e-002 -6.563632e-004
3420186000 1.358626e-002 -1.317114e-002 8.705570e-001 4.431514e-001 8.877453e-001 4.371176e-001 3.371935e-003 -2.061323e-002
3465184500 -1.470527e-002 -3.322242e-002 9.184518e-001 3.526835e-001 9.346240e-001 3.622431e-001 2.342144e-002 -1.202549e-002
3510183000 -5.902900e-004 -2.808108e-002 9.301869e-001 3.033221e-001 9.443909e-001 2.909772e-001 1.264426e-002 -2.403640e-002
3555181500 -1.365854e-002 -4.550177e-002 9.515998e-001 2.140813e-001 9.673650e-001 2.117029e-001 1.229681e-002 -2.035581e-002
3600180000 2.739481e-002 -2.136168e-002 9.766356e-001 1.588966e-001 9.798403e-001 1.462712e-001 4.122550e-002 -2.281226e-002
3645178500 -1.573584e-002 -1.459147e-003 9.674023e-001 7.013913e-002 9.843553e-001 6.712098e-002 1.270978e-002 -4.458684e-004
3690177000 -1.368637e-002 -3.017203e-002 9.862643e-001 3.477401e-003 9.921302e-001 -7.428988e-003 2.767830e-002 -1.523713e-002
3735175500 -2.072558e-002 -3.156713e-002 9.684771e-001 -7.103773e-002 9.838173e-001 -8.362888e-002 -1.218102e-002 -2.937852e-002
3780174000 1.301915e-002 -5.193902e-002 9.767023e-001 -1.511494e-001 9.768541e-001 -1.568302e-001 5.474317e-002 -5.307825e-002
3825172500 1.470323e-002 7.400704e-003 9.542143e-001 -2.132117e-001 9.652422e-001 -2.285337e-001 2.027993e-002 -1.315618e-002
3870171000 -2.988981e-002 -2.251462e-002 9.332338e-001 -2.980077e-001 9.423354e-001 -3.021198e-001 3.834583e-002 -2.009591e-002
3915169500 2.564028e-003 -1.519426e-002 9.077515e-001 -3.565007e-001 9.102830e-001 -3.762113e-001 -1.272707e-002 -2.137152e-002
3960168000 -3.085027e-002 -3.722148e-002 8.759939e-001 -4.317209e-001 8.885824e-001 -4.356934e-001 2.683147e-002 -5.407761e-002
4005166500 3.263766e-002 -2.194358e-002 8.472742e-001 -4.988787e-001 8.485470e-001 -5.087401e-001 2.013322e-002 -3.814551e-002
4050165000 -3.119834e-002 4.851010e-003 8.000962e-001 -5.574818e-001 8.138235e-001 -5.694469e-001 2.793087e-002 -3.305835e-002
4095163500 6.986283e-003 -5.305607e-002 7.566811e-001 -6.167314e-001 7.553961e-001 -6.262008e-001 1.636618e-002 -3.739838e-002
4140162000 -1.347996e-002 -1.959241e-003 7.109017e-001 -6.763549e-001 7.193595e-001 -6.879263e-001 1.834939e-003 -4.125398e-002
4185160500 -1.968242e-002 -5.488593e-002 6.530917e-001 -7.334933e-001 6.535505e-001 -7.324389e-001 1.152030e-002 -6.129448e-002
4230159000 -3.259713e-003 -6.506300e-003 5.922835e-001 -7.760714e-001 5.968122e-001 -8.012784e-001 -4.498166e-003 -2.952704e-002
4275157500 -4.064491e-002 -4.743108e-002 5.351058e-001 -8.231865e-001 5.342415e-001 -8.221245e-001 2.738729e-003 -8.156015e-002
4320156000 2.492694e-002 -2.479642e-002 4.742154e-001 -8.544099e-001 4.639106e-001 -8.767202e-001 -1.228590e-003 -2.838024e-002
4365154500 -5.342678e-002 1.185722e-003 4.115075e-001 -8.916506e-001 4.055962e-001 -8.992772e-001 -2.446957e-003 -7.623602e-002
4410153000 -1.180628e-002 -4.916883e-002 3.377537e-001 -9.188992e-001 3.239235e-001 -9.236255e-001 -2.463984e-002 -1.827623e-002
4455151500 -5.610306e-002 2.576436e-003 2.612553e-001 -9.479598e-001 2.626337e-001 -9.512197e-001 -4.596584e-002 -8.000530e-002
4500150000 -1.065094e-002 -7.003087e-002 1.976274e-001 -9.617468e-001 1.861817e-001 -9.722552e-001 -1.191710e-002 -4.567289e-002
4545148500 -2.030332e-002 2.742430e-002 1.169654e-001 -9.718801e-001 1.093275e-001 -9.700051e-001 -2.229685e-002 -5.136630e-002
4590147000 -7.208872e-002 -4.030897e-002 5.415851e-002 -9.588508e-001 5.803001e-002 -9.814660e-001 -3.565436e-002 -3.366970e-002
4635145500 -2.055242e-002 -2.424238e-003 -4.778316e-002 -9.827860e-001 -4.451136e-002 -9.862396e-001 -5.667664e-002 -3.070808e-002
4680144000 -7.490939e-002 -2.014047e-002 -8.507138e-002 -9.746140e-001 -1.127388e-001 -9.811648e-001 -5.283268e-002 -5.009446e-002
4725142500 -1.220443e-002 -9.010236e-003 -1.860764e-001 -9.368778e-001 -1.732346e-001 -9.570496e-001 -3.614189e-002 -3.341863e-003
4770141000 -7.538001e-002 2.990124e-002 -2.344342e-001 -9.615571e-001 -2.525872e-001 -9.535096e-001 -7.917022e-002 -3.961791e-002
4815139500 -4.011297e-002 -3.046323e-002 -3.146323e-001 -9.018875e-001 -3.251417e-001 -9.270996e-001 -3.889958e-002 7.025618e-003
4860138000 -4.981279e-002 4.432372e-002 -3.946355e-001 -9.076920e-001 -3.949179e-001 -8.930392e-001 -1.015493e-001 -2.616911e-002
4905136500 -6.315083e-002 -1.387451e-002 -4.277757e-001 -8.602337e-001 -4.508036e-001 -8.806421e-001 -3.421766e-002 1.926158e-002
4950135000 -4.146459e-002 6.668533e-002 -5.426849e-001 -8.225990e-001 -5.298211e-001 -8.289765e-001 -1.091975e-001 1.093242e-002
4995133500 -8.463827e-002 7.122784e-003 -5.465560e-001 -7.936212e-001 -5.878828e-001 -7.811722e-001 -3.495856e-002 1.756587e-002
5040132000 -1.473736e-002 5.588771e-002 -6.450107e-001 -7.106993e-001 -6.463277e-001 -7.324931e-001 -8.103150e-002 4.273222e-002
5085130500 -7.451065e-002 6.542109e-002 -6.857032e-001 -7.134413e-001 -6.971962e-001 -6.833193e-001 -5.242266e-002 3.578529e-002
5130129000 -2.394734e-002 5.021334e-002 -7.263588e-001 -6.001611e-001 -7.525964e-001 -6.196470e-001 -6.347404e-002 6.384231e-002
5175127500 -5.229928e-002 8.079944e-002 -7.989094e-001 -5.840074e-001 -7.865924e-001 -5.629852e-001 -7.820768e-002 5.134066e-002
5220126000 -1.840527e-002 4.286216e-002 -8.014417e-001 -4.967979e-001 -8.410826e-001 -4.967096e-001 -1.871607e-002 6.202256e-002
5265124500 -1.667952e-002 1.118982e-001 -8.761801e-001 -4.308048e-001 -8.581681e-001 -4.408662e-001 -6.237831e-002 8.876987e-002
5310123000 -5.209550e-002 6.020486e-002 -8.678993e-001 -3.953699e-001 -8.955570e-001 -3.617069e-001 -3.295438e-003 7.067540e-002
5355121500 1.781659e-002 9.748290e-002 -9.275175e-001 -2.749317e-001 -9.392911e-001 -3.116581e-001 -7.078212e-002 1.122605e-001
5400120000 -2.509104e-002 9.219846e-002 -9.321680e-001 -2.588002e-001 -9.387888e-001 -2.182206e-001 1.746028e-002 6.150522e-002
5445118500 4.458513e-002 1.028981e-001 -9.326921e-001 -1.405867e-001 -9.673316e-001 -1.618315e-001 -2.821295e-002 1.402309e-001
5490117000 -1.692160e-002 1.244765e-001 -9.724984e-001 -1.146464e-001 -9.533646e-001 -8.798259e-002 1.464552e-002 7.527808e-002
5535115500 4.273778e-002 6.784984e-002 -9.431247e-001 -9.892067e-003 -9.878801e-001 2.118495e-003 1.549113e-002 1.274270e-001
5580114000 4.942414e-002 1.291295e-001 -9.866625e-001 6.072304e-002 -9.717387e-001 5.451027e-002 3.730118e-002 9.430123e-002
5625112500 3.945642e-002 8.328800e-002 -9.320838e-001 1.152604e-001 -9.561780e-001 1.584488e-001 5.173675e-002 1.269530e-001
5670111000 7.303376e-002 1.271545e-001 -9.553360e-001 2.227926e-001 -9.498737e-001 1.990064e-001 3.586038e-002 1.182996e-001
5715109500 3.438833e-002 8.478055e-002 -9.265396e-001 2.532604e-001 -9.064337e-001 2.975362e-001 7.231072e-002 7.892943e-002
5760108000 1.187523e-001 8.788113e-002 -8.950390e-001 3.693818e-001 -9.081551e-001 3.589619e-001 7.876991e-002 1.229582e-001
5805106500 6.607611e-002 1.093272e-001 -8.887079e-001 3.826301e-001 -8.383189e-001 4.090767e-001 9.095100e-002 5.970773e-002
5850105000 1.163626e-001 6.119028e-002 -8.110109e-001 4.879532e-001 -8.324327e-001 5.029420e-001 1.086148e-001 1.403874e-001
5895103500 1.002404e-001 9.860283e-002 -8.037965e-001 5.337412e-001 -7.766523e-001 5.200195e-001 8.512659e-002 3.571302e-002
5940102000 1.067405e-001 3.766225e-002 -7.238383e-001 5.829369e-001 -7.343950e-001 6.194707e-001 1.496114e-001 1.032676e-001
5985100500 1.364710e-001 9.199067e-002 -6.909468e-001 6.596197e-001 -7.166421e-001 6.497912e-001 9.962884e-002 4.300972e-002
6030099000 8.392284e-002 3.037999e-002 -6.271351e-001 6.857843e-001 -6.135030e-001 7.137977e-001 1.513915e-001 5.776160e-002
6075097500 1.652289e-001 4.271419e-002 -5.752724e-001 7.413419e-001 -6.241639e-001 7.408981e-001 1.220406e-001 3.896233e-002
6120096000 1.030362e-001 3.909663e-002 -5.479426e-001 7.725784e-001 -5.309745e-001 7.797094e-001 1.465658e-001 2.058631e-002
6165094500 1.683410e-001 1.790596e-002 -4.510692e-001 8.074561e-001 -4.896240e-001 8.520258e-001 1.560140e-001 3.889672e-002
6210093000 9.145010e-002 4.419150e-002 -4.249077e-001 8.515507e-001 -4.104694e-001 8.427322e-001 9.434555e-002 -9.342439e-003
6255091500 1.425801e-001 -4.797301e-002 -3.490926e-001 8.647370e-001 -3.361878e-001 9.217601e-001 1.793210e-001 -2.237188e-002
6300090000 1.534490e-001 1.795848e-002 -2.807700e-001 9.147989e-001 -2.927602e-001 9.066223e-001 1.105622e-001 -4.670855e-003
6345088500 1.162255e-001 -3.560429e-002 -2.101310e-001 8.999681e-001 -1.684263e-001 9.326824e-001 1.795419e-001 -3.202306e-002
6390087000 1.485935e-001 -4.246917e-003 -1.359461e-001 9.387134e-001 -1.542129e-001 9.527403e-001 7.785415e-002 1.671170e-003
6435085500 7.310577e-002 -3.543919e-002 -8.962128e-002 9.372693e-001 -3.430887e-002 9.342636e-001 1.368687e-001 -8.782266e-002
6480084000 1.437709e-001 -6.323311e-002 1.708340e-003 9.444343e-001 2.061276e-003 9.745563e-001 1.117252e-001 -3.869085e-002
6525082500 9.358881e-002 -2.422084e-002 6.280307e-002 9.324558e-001 8.771330e-002 9.389346e-001 1.192781e-001 -7.687268e-002
6570081000 1.211403e-001 -8.615714e-002 1.372599e-001 9.325694e-001 1.534108e-001 9.434471e-001 1.087925e-001 -4.687974e-002
6615079500 8.420506e-002 -1.678629e-002 2.078399e-001 9.203235e-001 2.254845e-001 9.038188e-001 6.557580e-002 -7.417843e-002
6660078000 7.881001e-002 -9.406672e-002 2.626534e-001 8.960416e-001 3.004173e-001 9.143955e-001 9.299640e-002 -1.001007e-001
6705076500 8.573311e-002 -3.338501e-002 3.469183e-001 8.848262e-001 3.413803e-001 8.870748e-001 6.107910e-002 -5.667163e-002
6750075000 5.194157e-002 -9.653942e-002 4.021321e-001 8.490293e-001 4.444802e-001 8.412095e-001 7.372271e-002 -1.205855e-001
6795073500 8.522417e-002 -5.611387e-002 4.758172e-001 8.091249e-001 4.828796e-001 8.326294e-001 5.379770e-002 -3.406736e-002
6840072000 4.708744e-002 -7.026254e-002 5.139170e-001 7.858514e-001 5.340471e-001 7.681299e-001 4.377240e-002 -1.196755e-001
6885070500 5.314136e-002 -6.578446e-002 5.972183e-001 7.311804e-001 6.244915e-001 7.630481e-001 4.337508e-002 -3.714177e-002
