!Agilent Technologies,E8358A,US40210021,A.06.04.30
!Agilent E8358A: A.06.04.30
!Date: Saturday, April 21, 2018 14:29:28
!Correction: S11(Full 2 Port(1,2)) S21(Full 2 Port(1,2)) S12(Full 2 Port(1,2)) S22(Full 2 Port(1,2)) 
!S2P File: Measurements: S11, S21, S12, S22:
# Hz S  RI   R 50
300000 9.982311e-001 -3.463275e-003 -9.585283e-005 1.365504e-004 1.870846e-004 -1.577825e-004 9.985948e-001 -3.417604e-003
45298500 8.932647e-001 -3.612522e-001 -6.402194e-005 3.510236e-004 1.731383e-004 5.547599e-004 9.422082e-001 -2.570021e-001
90297000 6.443795e-001 -5.929106e-001 6.042100e-005 -4.017408e-004 -1.224621e-004 1.554055e-004 8.197242e-001 -4.741328e-001
135295500 3.929213e-001 -6.681793e-001 -1.557796e-004 6.380710e-004 3.642972e-004 1.196231e-004 6.498688e-001 -6.265137e-001
180294000 1.663348e-001 -6.472414e-001 1.731562e-005 4.930221e-004 9.027754e-006 -2.151691e-004 4.552576e-001 -7.194948e-001
225292500 2.156049e-002 -5.881969e-001 -7.164468e-004 3.005226e-004 1.129674e-004 4.550280e-004 2.658833e-001 -7.502013e-001
270291000 -9.763771e-002 -4.965580e-001 -2.270646e-004 3.581011e-004 9.986020e-005 2.396568e-004 9.220417e-002 -7.310716e-001
315289500 -1.622298e-001 -4.268878e-001 -6.523084e-005 4.817218e-004 6.367296e-004 -1.473783e-004 -5.108081e-002 -6.772870e-001
360288000 -2.075140e-001 -3.319064e-001 1.054735e-004 -1.721825e-004 -6.115055e-004 1.545972e-004 -1.667363e-001 -6.022827e-001
405286500 -2.386998e-001 -2.749149e-001 -3.984316e-004 -2.250640e-005 -8.880728e-005 6.266036e-004 -2.489485e-001 -5.173918e-001
450285000 -2.357925e-001 -1.958444e-001 2.089635e-004 7.414196e-004 -3.848420e-004 1.132005e-004 -3.072472e-001 -4.257297e-001
495283500 -2.579155e-001 -1.469009e-001 3.609978e-004 -1.434004e-004 -1.538005e-005 9.059795e-004 -3.432702e-001 -3.421463e-001
540282000 -2.287721e-001 -9.867338e-002 -3.738497e-004 9.181463e-005 1.440575e-004 1.439389e-004 -3.615078e-001 -2.593474e-001
585280500 -2.379984e-001 -4.685862e-002 2.956134e-004 -1.429220e-004 6.081676e-005 1.585596e-004 -3.661813e-001 -1.863090e-001
630279000 -2.062897e-001 -2.611875e-002 2.525028e-004 3.590711e-004 1.136185e-003 1.830824e-004 -3.586230e-001 -1.200733e-001
675277500 -1.944017e-001 2.680763e-002 2.885639e-004 -1.056892e-005 -5.118630e-004 -5.342047e-005 -3.454755e-001 -6.122154e-002
720276000 -1.759076e-001 2.670411e-002 -1.198451e-004 4.663472e-005 1.606587e-004 -1.582652e-004 -3.247612e-001 -1.337617e-002
765274500 -1.427137e-001 6.937362e-002 4.308860e-005 -2.448430e-004 9.520180e-005 -1.603629e-004 -3.005382e-001 3.260747e-002
810273000 -1.403482e-001 6.741125e-002 1.311561e-004 -2.339179e-004 1.715048e-004 4.189835e-004 -2.728981e-001 6.541441e-002
855271500 -9.089543e-002 8.712032e-002 3.765968e-004 -2.544945e-004 5.867938e-004 6.676231e-005 -2.430634e-001 9.668921e-002
900270000 -9.754410e-002 9.547685e-002 -1.189814e-004 -8.306582e-004 -1.629598e-005 -4.861922e-004 -2.142226e-001 1.170509e-001
945268500 -4.774759e-002 8.788016e-002 4.178468e-004 -2.230469e-004 2.237194e-004 -2.474388e-004 -1.834617e-001 1.367503e-001
990267000 -4.996904e-002 1.080608e-001 2.860902e-004 -8.247525e-004 2.978813e-004 -4.472240e-004 -1.574950e-001 1.487980e-001
1035265500 -1.782288e-002 7.669204e-002 5.283655e-004 -8.425578e-005 1.490555e-004 -3.859688e-004 -1.258639e-001 1.576655e-001
1080264000 -2.013778e-003 1.022814e-001 -3.562034e-004 -8.679314e-004 2.094377e-004 -6.781055e-004 -1.010381e-001 1.639214e-001
1125262500 2.846786e-003 6.473199e-002 4.457088e-004 3.474617e-005 4.655431e-004 -4.050251e-005 -7.348947e-002 1.642026e-001
1170261000 3.671141e-002 8.004431e-002 -7.465271e-005 1.840557e-004 -5.868224e-005 -8.777948e-004 -5.090906e-002 1.649072e-001
1215259500 1.979849e-002 5.421292e-002 -1.402215e-004 -9.893019e-005 1.606027e-004 -3.572627e-004 -2.757814e-002 1.612575e-001
1260258000 6.225797e-002 4.573808e-002 -5.337486e-005 -2.069114e-004 3.403867e-004 -6.060696e-004 -4.686795e-003 1.589608e-001
1305256500 3.641169e-002 4.344156e-002 -3.209033e-005 -2.449450e-004 1.425489e-004 -2.001321e-005 1.343619e-002 1.505264e-001
1350255000 6.858619e-002 9.351403e-003 2.090895e-004 -5.991025e-004 5.485255e-005 -7.011350e-004 3.422990e-002 1.436465e-001
1395253500 5.172649e-002 2.644488e-002 -4.022633e-004 -5.047396e-004 -5.940836e-005 -8.512862e-004 4.938279e-002 1.326237e-001
1440252000 5.847018e-002 -2.218665e-002 -2.615850e-004 -1.700286e-004 7.287374e-005 -6.432880e-004 6.892957e-002 1.205203e-001
1485250500 6.454766e-002 1.342272e-003 2.212425e-004 -2.886729e-004 -7.544053e-004 6.279534e-004 7.849886e-002 1.085727e-001
1530249000 4.163932e-002 -4.198085e-002 -1.366670e-003 2.410255e-004 -5.672256e-004 2.013396e-004 9.500723e-002 9.272601e-002
1575247500 6.822959e-002 -3.139079e-002 -8.026733e-004 -8.499173e-005 -3.222965e-004 7.784571e-004 1.040993e-001 8.067806e-002
1620246000 2.137096e-002 -4.940615e-002 -1.383952e-003 -2.029478e-004 -2.129307e-005 -5.632253e-004 1.140538e-001 6.063385e-002
1665244500 5.481043e-002 -6.333017e-002 -7.869304e-004 1.598511e-004 -2.122540e-004 2.883149e-004 1.217897e-001 4.826734e-002
1710243000 1.081985e-002 -5.076762e-002 -4.317441e-004 6.366677e-004 -1.784603e-004 3.223098e-004 1.245798e-001 2.550002e-002
1755241500 2.596883e-002 -8.784702e-002 1.194019e-004 5.400514e-004 -4.777748e-004 3.798551e-004 1.311648e-001 1.051927e-002
1800240000 3.658117e-003 -5.189839e-002 -5.608611e-004 5.564432e-004 -9.455589e-004 5.857784e-004 1.264405e-001 -9.801119e-003
1845238500 -8.503242e-003 -9.629574e-002 -1.606464e-004 1.648244e-004 -8.916567e-004 7.060481e-005 1.296516e-001 -2.756593e-002
1890237000 -1.575765e-003 -5.968584e-002 -6.325501e-004 3.373479e-004 -3.400167e-004 9.407935e-004 1.195395e-001 -4.436918e-002
1935235500 -4.313488e-002 -8.801010e-002 -2.764557e-004 3.299789e-004 -4.393453e-004 4.465508e-004 1.177178e-001 -6.623317e-002
1980234000 -1.319834e-002 -6.935562e-002 -6.932035e-004 1.030802e-003 -3.786622e-004 5.992010e-004 1.077090e-001 -7.791349e-002
2025232500 -6.845583e-002 -6.669740e-002 -5.614415e-004 9.036299e-004 1.631679e-004 5.255080e-004 9.663317e-002 -9.838983e-002
2070231000 -3.586780e-002 -7.739681e-002 -1.254289e-003 1.512362e-004 1.777613e-004 2.183955e-004 8.575092e-002 -1.073560e-001
2115229500 -7.602773e-002 -4.122668e-002 -1.067333e-003 9.285632e-004 1.219777e-004 1.253152e-003 6.541122e-002 -1.232424e-001
2160228000 -6.589027e-002 -7.533120e-002 -1.534188e-003 2.313385e-004 1.415928e-004 1.051095e-003 5.614709e-002 -1.309021e-001
2205226500 -7.278892e-002 -2.154715e-002 4.826586e-004 1.266571e-004 4.510671e-004 8.692031e-004 3.146816e-002 -1.401202e-001
2250225000 -9.306248e-002 -5.462553e-002 9.642103e-004 7.845888e-004 4.605299e-004 3.895517e-004 1.974951e-002 -1.465800e-001
2295223500 -6.788260e-002 -1.056475e-002 -6.072040e-004 8.132400e-005 7.990319e-004 5.859499e-004 -5.200789e-003 -1.442053e-001
2340222000 -1.098849e-001 -2.057385e-002 4.489504e-004 7.533280e-004 -5.689858e-005 2.459743e-004 -2.091092e-002 -1.524149e-001
2385220500 -6.599344e-002 -7.589498e-003 1.483222e-004 8.017783e-004 3.253978e-004 1.622639e-003 -4.110442e-002 -1.424640e-001
2430219000 -1.100781e-001 1.505180e-002 -9.519292e-005 6.403808e-004 1.063098e-003 1.024640e-003 -6.170044e-002 -1.447702e-001
2475217500 -7.288878e-002 -1.979755e-003 2.224409e-004 5.358668e-004 6.429390e-004 8.328178e-005 -7.560989e-002 -1.295956e-001
2520216000 -9.225913e-002 4.637782e-002 4.818740e-004 5.231270e-004 -1.194172e-005 6.882837e-004 -1.009303e-001 -1.246067e-001
2565214500 -8.099677e-002 1.293783e-002 1.059873e-003 3.138172e-004 4.411093e-004 4.012701e-004 -1.073861e-001 -1.106147e-001
2610213000 -7.013294e-002 6.374005e-002 4.489658e-004 3.591797e-004 1.341616e-003 8.767137e-004 -1.331215e-001 -9.472014e-002
2655211500 -8.418953e-002 3.413169e-002 7.615197e-004 4.683192e-004 8.516237e-004 -3.680344e-004 -1.354556e-001 -8.337286e-002
2700210000 -4.294962e-002 6.922109e-002 5.619914e-004 1.869571e-004 1.130346e-003 6.230672e-004 -1.525410e-001 -5.457112e-002
2745208500 -7.581317e-002 6.184558e-002 3.357839e-004 2.826556e-004 8.069261e-004 4.497595e-005 -1.565038e-001 -4.760744e-002
2790207000 -2.481209e-002 6.536522e-002 7.890392e-004 -1.089674e-003 1.013036e-003 -1.475397e-004 -1.592280e-001 -1.357139e-002
2835205500 -5.530279e-002 8.639149e-002 4.676355e-004 3.237400e-004 7.736179e-004 4.433441e-004 -1.687039e-001 -3.288216e-003
2880204000 -1.516241e-002 5.963965e-002 3.602584e-004 7.385688e-007 6.776369e-005 -7.300884e-004 -1.562385e-001 2.408375e-002
2925202500 -2.436685e-002 1.014080e-001 4.987431e-004 -1.271036e-003 1.563715e-004 1.624227e-004 -1.654346e-001 4.263062e-002
2970201000 -1.011856e-002 5.976389e-002 1.844511e-004 -4.080062e-004 3.552128e-004 -8.218430e-004 -1.463007e-001 6.262365e-002
3015199500 1.450990e-002 1.002607e-001 2.592989e-004 1.012116e-004 -6.774639e-004 9.282146e-004 -1.480383e-001 8.903238e-002
3060198000 -3.939563e-003 6.343871e-002 3.556941e-004 -1.438298e-003 -1.434505e-004 1.338136e-003 -1.270203e-001 9.944889e-002
3105196500 4.101058e-002 8.209775e-002 1.755215e-004 -9.070217e-004 5.502978e-004 -1.296561e-003 -1.176069e-001 1.259293e-001
3150195000 8.962559e-003 7.155848e-002 -4.012134e-005 -3.786193e-004 2.261591e-003 -7.474138e-004 -9.907641e-002 1.279854e-001
3195193500 6.216656e-002 5.870903e-002 1.042992e-003 -2.489277e-004 1.295707e-004 -1.439252e-003 -7.995638e-002 1.498964e-001
3240192000 2.893108e-002 7.754194e-002 1.058104e-004 5.088665e-004 -9.499901e-004 -2.665565e-003 -6.203925e-002 1.490175e-001
3285190500 6.223612e-002 3.333322e-002 3.817936e-004 1.854691e-004 -4.793754e-005 7.125604e-004 -3.328259e-002 1.684920e-001
3330189000 5.628417e-002 6.836405e-002 -1.586710e-005 -1.180847e-004 -4.553733e-004 -5.927194e-004 -2.126611e-002 1.629628e-001
3375187500 5.874305e-002 1.714931e-002 -4.205282e-005 -1.940772e-003 4.711006e-004 -1.832834e-003 1.466287e-002 1.673715e-001
3420186000 8.181619e-002 4.853610e-002 -3.582616e-004 -1.122391e-003 -2.311240e-003 -7.227981e-004 2.350667e-002 1.668143e-001
3465184500 5.343825e-002 8.675922e-003 1.560719e-003 -9.187115e-004 2.300209e-004 -1.681407e-003 5.656007e-002 1.556424e-001
3510183000 9.236738e-002 2.077893e-002 2.554162e-004 -6.269939e-004 -9.560931e-004 -3.808369e-004 6.965481e-002 1.528972e-001
3555181500 5.105488e-002 5.744441e-003 5.821498e-004 1.996811e-004 -1.063635e-003 -1.871363e-003 9.126050e-002 1.322292e-001
3600180000 9.173417e-002 -1.318562e-002 -8.479810e-005 -6.173869e-004 -1.010027e-003 -1.759022e-003 1.110342e-001 1.312391e-001
3645178500 5.549141e-002 3.423613e-003 -1.414033e-003 -1.137960e-003 -1.417185e-004 3.422463e-005 1.186993e-001 1.036733e-001
3690177000 7.519519e-002 -4.417266e-002 1.791789e-003 -1.835009e-004 1.938493e-004 1.334215e-003 1.411640e-001 9.409624e-002
3735175500 6.576414e-002 -5.924186e-003 -1.709392e-003 -5.353292e-004 -6.276707e-004 -1.698048e-004 1.387928e-001 6.846063e-002
3780174000 5.158537e-002 -5.527859e-002 -1.730786e-003 7.895095e-005 -7.127156e-006 -3.567781e-005 1.607209e-001 4.983394e-002
3825172500 7.105691e-002 -2.574223e-002 7.515413e-005 4.930004e-004 -1.690212e-003 -6.420405e-004 1.494516e-001 3.306675e-002
3870171000 3.123261e-002 -5.716345e-002 -3.698602e-004 3.600480e-004 -8.233514e-004 -4.314786e-004 1.631133e-001 5.267461e-003
3915169500 6.712565e-002 -4.977963e-002 7.097535e-005 7.771195e-004 -2.662048e-003 3.842094e-004 1.520115e-001 -7.325594e-003
3960168000 1.138233e-002 -4.744805e-002 -8.660070e-005 -5.194261e-004 -1.884761e-004 1.609046e-003 1.474707e-001 -4.081550e-002
4005166500 4.726932e-002 -7.380386e-002 -3.719632e-003 1.968132e-004 -2.039682e-003 3.005043e-004 1.438678e-001 -4.508664e-002
4050165000 1.149550e-002 -3.780726e-002 -1.054457e-003 -5.297916e-004 -2.156169e-003 2.547069e-003 1.232442e-001 -7.474566e-002
4095163500 1.968905e-002 -8.649136e-002 -3.155824e-003 -5.273070e-004 -1.549968e-003 1.107132e-003 1.284358e-001 -7.619799e-002
4140162000 1.290312e-002 -3.984383e-002 -4.597022e-004 -8.741624e-004 1.570491e-003 5.086873e-004 9.185260e-002 -9.625479e-002
4185160500 -1.653369e-002 -8.268711e-002 7.578426e-005 -1.736248e-004 -6.816385e-004 -1.661178e-004 9.912223e-002 -1.036534e-001
4230159000 1.584551e-002 -4.692399e-002 1.379843e-004 -2.344529e-005 -4.519629e-004 1.663090e-004 6.312463e-002 -1.059018e-001
4275157500 -3.779310e-002 -5.856793e-002 -8.944265e-004 1.445219e-003 2.544998e-003 -1.916857e-004 6.330823e-002 -1.233003e-001
4320156000 4.877387e-003 -5.671129e-002 3.036784e-005 1.433313e-003 -9.854052e-005 5.441537e-004 3.421467e-002 -1.055730e-001
4365154500 -4.677786e-002 -3.415843e-002 -1.431070e-003 -1.321151e-003 1.039470e-004 1.518014e-003 2.334554e-002 -1.244379e-001
4410153000 -1.716985e-002 -6.679997e-002 -1.283865e-003 7.261052e-004 -7.227961e-004 -8.662204e-004 1.138827e-002 -1.011937e-001
4455151500 -4.440238e-002 -1.341015e-002 -8.344754e-004 2.410950e-006 -2.171108e-003 9.396124e-005 -1.652323e-002 -1.151389e-001
4500150000 -4.257738e-002 -5.707398e-002 1.312270e-004 7.870379e-004 -4.996293e-004 3.035339e-005 -9.935132e-003 -9.379550e-002
4545148500 -3.334736e-002 -3.802261e-003 2.566300e-004 2.328021e-003 -3.014220e-004 1.933743e-003 -4.528589e-002 -8.956326e-002
4590147000 -6.774097e-002 -3.349181e-002 -8.387618e-004 1.568082e-003 1.902376e-004 9.637965e-004 -2.587685e-002 -8.379094e-002
4635145500 -2.278070e-002 -5.369115e-003 5.672359e-005 9.060134e-004 -2.991720e-005 2.861024e-003 -5.759805e-002 -6.070343e-002
4680144000 -7.556182e-002 -2.867577e-003 1.784829e-003 4.443837e-004 -2.564144e-004 5.057522e-004 -4.558358e-002 -6.927223e-002
4725142500 -2.836647e-002 -9.424100e-003 -1.912114e-003 4.252148e-004 -9.001213e-005 -2.911366e-004 -5.943383e-002 -2.958257e-002
4770141000 -6.312475e-002 3.073378e-002 1.630422e-003 -1.103450e-003 8.883308e-004 9.480008e-004 -6.529538e-002 -5.038320e-002
4815139500 -4.121540e-002 -8.962485e-003 1.372959e-003 -1.223035e-003 1.029808e-004 8.837788e-004 -5.054545e-002 -1.177490e-002
4860138000 -4.208743e-002 4.863141e-002 9.976159e-006 4.759020e-005 -1.237298e-003 2.957571e-004 -6.964564e-002 -2.311947e-002
4905136500 -5.278074e-002 6.413538e-003 6.025543e-004 -4.989226e-004 -6.057970e-004 1.071626e-003 -3.528427e-002 -3.654609e-005
4950135000 -2.002952e-002 5.537920e-002 1.904410e-003 1.153677e-003 1.596287e-004 2.223036e-003 -6.422269e-002 8.437431e-003
4995133500 -5.508774e-002 2.945401e-002 7.475725e-004 1.617343e-003 -2.515236e-004 -1.480445e-003 -2.947693e-002 3.964450e-004
5040132000 9.735289e-004 4.903640e-002 2.664045e-003 1.174767e-003 1.193301e-003 2.167123e-003 -4.681253e-002 2.942007e-002
5085130500 -5.042376e-002 6.650032e-002 7.957850e-004 1.227706e-003 -1.647621e-003 -1.805206e-003 -3.153535e-002 4.190342e-003
5130129000 -3.464426e-004 4.026252e-002 4.062689e-003 -5.881520e-004 -6.134930e-004 6.641558e-004 -2.572102e-002 4.039947e-002
5175127500 -2.290871e-002 8.439378e-002 7.512658e-004 8.006882e-004 1.528864e-004 -1.610402e-003 -3.632424e-002 7.163648e-003
5220126000 -4.363844e-003 3.547106e-002 1.468020e-003 -2.218479e-003 -1.407801e-003 3.089273e-004 -6.460279e-003 3.498928e-002
5265124500 1.254693e-002 9.400975e-002 8.687663e-004 -9.256379e-004 1.234340e-003 -2.167536e-003 -3.155518e-002 2.537542e-002
5310123000 -7.377573e-003 4.464042e-002 4.264353e-004 1.189695e-003 -1.204550e-003 -4.585050e-004 2.633856e-003 2.904278e-002
5355121500 4.127650e-002 8.160858e-002 5.500918e-004 -7.072267e-004 -1.095324e-003 1.119432e-004 -2.686207e-002 4.149782e-002
5400120000 -1.005181e-002 6.483342e-002 -4.366181e-004 -5.870785e-004 1.140476e-003 1.502694e-005 1.540545e-003 1.558971e-002
5445118500 5.517408e-002 5.602154e-002 5.301021e-004 1.267835e-003 2.889242e-003 7.203287e-004 -1.401008e-002 5.376650e-002
5490117000 1.270500e-002 8.795884e-002 1.080541e-003 -1.298538e-004 -2.899533e-004 -1.061775e-003 -1.047275e-002 1.713119e-002
5535115500 5.387332e-002 3.580712e-002 1.554315e-003 -1.183130e-003 1.245538e-003 -1.141321e-003 3.461461e-003 5.045329e-002
5580114000 4.785556e-002 9.770817e-002 1.877335e-003 4.449841e-004 5.360901e-004 1.066466e-003 -2.036258e-002 2.744960e-002
5625112500 3.738740e-002 3.476856e-002 1.135614e-003 5.447901e-004 1.447516e-003 -8.431328e-004 1.755437e-002 5.207988e-002
5670111000 7.877821e-002 8.417775e-002 1.567119e-003 -9.381992e-004 3.851756e-004 -4.307688e-004 -2.136669e-002 4.842081e-002
5715109500 3.060975e-002 4.526712e-002 1.761134e-003 1.347697e-003 -1.412035e-003 -2.150674e-003 1.796000e-002 4.257892e-002
5760108000 9.822647e-002 5.290242e-002 1.594671e-003 -8.131969e-004 -7.230154e-004 -7.159659e-004 -1.299483e-002 6.886773e-002
5805106500 3.866598e-002 6.654479e-002 1.564594e-004 -9.221301e-004 6.781202e-004 8.181032e-005 1.244610e-002 3.846834e-002
5850105000 9.546359e-002 2.280218e-002 -9.452732e-005 -1.476270e-003 4.647307e-004 -2.346610e-003 1.680455e-002 8.440447e-002
5895103500 6.546751e-002 7.515298e-002 4.911905e-004 1.574641e-004 -1.020158e-003 -1.739659e-003 8.851564e-003 4.269284e-002
5940102000 7.274029e-002 9.259268e-003 -1.391079e-003 -2.955353e-004 -8.495665e-004 -8.329048e-004 4.357388e-002 8.252032e-002
5985100500 9.673084e-002 6.449585e-002 -1.327559e-003 -1.017016e-003 -6.593981e-005 1.967622e-003 1.022692e-002 7.017060e-002
6030099000 5.458029e-002 1.796337e-002 -4.859226e-004 -5.389947e-004 -5.557288e-004 4.608239e-004 5.987474e-002 7.411377e-002
6075097500 1.152652e-001 3.593613e-002 -1.532058e-003 -1.158345e-003 8.717040e-005 4.815247e-004 2.493179e-002 9.118620e-002
6120096000 5.110829e-002 3.708136e-002 9.778257e-005 -1.731546e-003 9.602645e-004 1.939553e-003 6.805476e-002 5.897572e-002
6165094500 1.075930e-001 2.305039e-003 -5.102801e-004 9.745458e-004 -1.313563e-004 -5.848164e-004 6.307529e-002 1.020784e-001
6210093000 6.942923e-002 4.801535e-002 -1.131745e-003 -2.317302e-003 -2.640905e-003 -9.037888e-004 6.417249e-002 5.351704e-002
6255091500 8.950207e-002 -1.689534e-002 -1.007693e-004 1.394574e-003 -1.956067e-004 -1.935589e-003 9.487834e-002 9.384084e-002
6300090000 1.055071e-001 4.098779e-002 9.162607e-004 4.435887e-004 7.697549e-004 -6.816568e-004 7.119787e-002 5.827027e-002
6345088500 6.610187e-002 -1.073704e-002 -8.357467e-004 -5.764355e-004 9.163311e-004 1.640377e-004 1.222087e-001 7.177241e-002
6390087000 1.189442e-001 1.337591e-002 -1.149486e-003 2.784886e-004 -1.558028e-003 -1.341855e-003 8.647774e-002 7.081588e-002
6435085500 5.790653e-002 4.868076e-003 -1.187160e-003 1.014287e-003 -1.386382e-003 -8.318363e-004 1.297804e-001 4.259406e-002
6480084000 1.092077e-001 -1.755472e-002 -7.014553e-004 1.561454e-003 1.455607e-003 -2.266640e-003 1.115785e-001 6.685571e-002
6525082500 7.817526e-002 1.683536e-002 -1.144866e-003 -1.811778e-003 -1.603851e-003 1.916598e-003 1.255993e-001 2.332895e-002
6570081000 9.046848e-002 -3.311476e-002 -1.623660e-003 7.025105e-004 -2.075220e-003 1.934899e-003 1.425073e-001 4.877277e-002
6615079500 9.578003e-002 1.261092e-002 2.273144e-004 5.836851e-004 -1.293048e-003 1.898797e-004 1.239275e-001 8.948183e-003
6660078000 7.036242e-002 -2.928958e-002 -8.413542e-004 1.141688e-003 -1.413058e-003 1.329161e-003 1.539695e-001 1.938754e-002
6705076500 1.086140e-001 -1.134807e-002 -9.849328e-004 3.389481e-004 -7.327446e-004 1.472084e-003 1.278650e-001 7.698911e-004
6750075000 6.443299e-002 -1.711208e-002 -9.651265e-004 1.094506e-003 -3.201300e-003 -9.306506e-004 1.561969e-001 -1.213991e-002
6795073500 1.034529e-001 -3.911553e-002 1.592887e-003 -8.173938e-004 -3.533703e-004 -5.157123e-004 1.313191e-001 -5.760862e-003
6840072000 7.649071e-002 -1.110234e-002 -1.401025e-003 -9.226617e-005 -1.475178e-003 1.648640e-003 1.508984e-001 -3.917066e-002
6885070500 8.820752e-002 -5.378212e-002 2.397242e-004 -4.314124e-004 9.014154e-004 1.696241e-003 1.409619e-001 -2.544581e-002
