!Agilent Technologies,E8358A,US40210021,A.06.04.30
!Agilent E8358A: A.06.04.30
!Date: Saturday, April 21, 2018 14:28:17
!Correction: S11(Full 2 Port(1,2)) S21(Full 2 Port(1,2)) S12(Full 2 Port(1,2)) S22(Full 2 Port(1,2)) 
!S2P File: Measurements: S11, S21, S12, S22:
# Hz S  RI   R 50
300000 9.981808e-001 -2.262446e-003 -5.473281e-004 1.025143e-003 -1.557519e-004 -6.710874e-006 9.990925e-001 -2.487575e-003
45298500 9.418265e-001 -2.603075e-001 2.144671e-002 1.216339e-001 2.148873e-002 1.222275e-001 9.420164e-001 -2.573284e-001
90297000 8.123977e-001 -4.836408e-001 1.143017e-001 2.165986e-001 1.156323e-001 2.160846e-001 8.193997e-001 -4.720278e-001
135295500 6.470518e-001 -6.371410e-001 2.433688e-001 2.591012e-001 2.434339e-001 2.581729e-001 6.482688e-001 -6.258659e-001
180294000 4.364480e-001 -7.271597e-001 3.803756e-001 2.351121e-001 3.851058e-001 2.348507e-001 4.558580e-001 -7.166690e-001
225292500 2.554991e-001 -7.583516e-001 5.022953e-001 1.640043e-001 5.045277e-001 1.640962e-001 2.635940e-001 -7.483691e-001
270291000 6.530808e-002 -7.275097e-001 5.916312e-001 4.520035e-002 5.947018e-001 4.408957e-002 9.754404e-002 -7.274920e-001
315289500 -6.676879e-002 -6.843475e-001 6.418925e-001 -8.321775e-002 6.416425e-001 -8.288818e-002 -4.987631e-002 -6.754029e-001
360288000 -1.855716e-001 -5.885543e-001 6.525447e-001 -2.324233e-001 6.524444e-001 -2.363640e-001 -1.556478e-001 -6.012090e-001
405286500 -2.726554e-001 -5.175614e-001 6.214646e-001 -3.652405e-001 6.216400e-001 -3.678494e-001 -2.487487e-001 -5.182061e-001
450285000 -3.107884e-001 -4.105053e-001 5.613618e-001 -5.070392e-001 5.610645e-001 -5.076936e-001 -2.925114e-001 -4.300698e-001
495283500 -3.738512e-001 -3.269005e-001 4.783508e-001 -5.992248e-001 4.764183e-001 -6.029350e-001 -3.465202e-001 -3.434758e-001
540282000 -3.630274e-001 -2.521348e-001 3.605242e-001 -7.054631e-001 3.620295e-001 -7.050899e-001 -3.483134e-001 -2.697911e-001
585280500 -3.870485e-001 -1.552756e-001 2.541344e-001 -7.666938e-001 2.469031e-001 -7.577208e-001 -3.732336e-001 -1.943101e-001
630279000 -3.727613e-001 -1.141060e-001 1.206265e-001 -8.013841e-001 1.150558e-001 -8.150039e-001 -3.489202e-001 -1.321955e-001
675277500 -3.491491e-001 -2.702119e-002 -1.328546e-002 -8.276086e-001 -9.579081e-003 -8.189918e-001 -3.578373e-001 -6.607874e-002
720276000 -3.439090e-001 6.300014e-003 -1.387098e-001 -8.185834e-001 -1.550407e-001 -8.260083e-001 -3.208867e-001 -2.701600e-002
765274500 -2.983633e-001 6.123986e-002 -2.754538e-001 -7.916325e-001 -2.752795e-001 -7.893831e-001 -3.193942e-001 2.791945e-002
810273000 -2.839017e-001 9.505641e-002 -3.963614e-001 -7.518215e-001 -3.985842e-001 -7.507015e-001 -2.729446e-001 5.760962e-002
855271500 -2.360079e-001 1.267874e-001 -5.079162e-001 -6.759608e-001 -5.076184e-001 -6.751834e-001 -2.675695e-001 9.679623e-002
900270000 -2.171394e-001 1.493903e-001 -6.101425e-001 -6.061419e-001 -6.111374e-001 -6.021331e-001 -2.169608e-001 1.138304e-001
945268500 -1.645204e-001 1.685634e-001 -6.911212e-001 -5.004966e-001 -6.931258e-001 -4.971601e-001 -2.082708e-001 1.447503e-001
990267000 -1.517559e-001 1.868079e-001 -7.678246e-001 -4.010194e-001 -7.641168e-001 -3.997567e-001 -1.558492e-001 1.528474e-001
1035265500 -9.395722e-002 1.809190e-001 -8.135320e-001 -2.815064e-001 -8.149636e-001 -2.772064e-001 -1.506579e-001 1.734243e-001
1080264000 -7.914665e-002 2.096653e-001 -8.524492e-001 -1.586720e-001 -8.510984e-001 -1.619783e-001 -9.639028e-002 1.726344e-001
1125262500 -3.780349e-002 1.702010e-001 -8.687819e-001 -3.632274e-002 -8.654226e-001 -3.162139e-002 -9.309858e-002 1.838933e-001
1170261000 1.596647e-003 2.082168e-001 -8.621609e-001 9.166608e-002 -8.650110e-001 8.855162e-002 -3.679566e-002 1.778739e-001
1215259500 -1.174326e-004 1.601347e-001 -8.490325e-001 2.176170e-001 -8.436568e-001 2.180926e-001 -3.889216e-002 1.827814e-001
1260258000 7.602116e-002 1.676241e-001 -8.013951e-001 3.285078e-001 -8.031999e-001 3.313095e-001 1.773689e-002 1.697566e-001
1305256500 4.311216e-002 1.570064e-001 -7.538057e-001 4.495689e-001 -7.503767e-001 4.507504e-001 1.067600e-002 1.668204e-001
1350255000 1.116714e-001 1.063537e-001 -6.811781e-001 5.427775e-001 -6.794646e-001 5.462400e-001 6.568927e-002 1.489189e-001
1395253500 1.016883e-001 1.383674e-001 -5.933661e-001 6.432000e-001 -5.961753e-001 6.423733e-001 5.077886e-002 1.411337e-001
1440252000 1.129988e-001 5.589894e-002 -5.033301e-001 7.173886e-001 -4.999731e-001 7.154074e-001 1.037713e-001 1.193310e-001
1485250500 1.529414e-001 8.093122e-002 -3.925936e-001 7.804368e-001 -3.910023e-001 7.810830e-001 8.162952e-002 1.082734e-001
1530249000 1.107970e-001 2.709962e-002 -2.803651e-001 8.321519e-001 -2.781892e-001 8.272254e-001 1.299913e-001 8.127447e-002
1575247500 1.656408e-001 6.056393e-003 -1.614180e-001 8.624480e-001 -1.575100e-001 8.641903e-001 1.030497e-001 7.108963e-002
1620246000 1.183273e-001 3.487583e-003 -4.134739e-002 8.709113e-001 -4.370145e-002 8.704883e-001 1.426340e-001 4.492602e-002
1665244500 1.391935e-001 -5.499395e-002 8.487907e-002 8.728139e-001 8.740325e-002 8.689925e-001 1.124836e-001 3.082522e-002
1710243000 1.212816e-001 -3.964309e-002 1.983025e-001 8.465038e-001 1.984619e-001 8.494946e-001 1.437952e-001 5.278736e-003
1755241500 1.079137e-001 -8.799314e-002 3.244378e-001 8.115006e-001 3.212838e-001 8.080922e-001 1.085288e-001 -7.890024e-003
1800240000 9.958493e-002 -8.370979e-002 4.265170e-001 7.602770e-001 4.281449e-001 7.615677e-001 1.352496e-001 -2.505641e-002
1845238500 8.287758e-002 -1.123325e-001 5.350655e-001 6.898307e-001 5.255869e-001 6.936240e-001 1.003042e-001 -4.271829e-002
1890237000 6.353020e-002 -1.106302e-001 6.165524e-001 6.146054e-001 6.253272e-001 6.125355e-001 1.210520e-001 -5.342405e-002
1935235500 4.455011e-002 -1.420760e-001 7.011841e-001 5.169311e-001 6.985292e-001 5.241353e-001 8.657359e-002 -7.269039e-002
1980234000 3.454578e-002 -1.209951e-001 7.639463e-001 4.173327e-001 7.602289e-001 4.112311e-001 1.054603e-001 -7.610887e-002
2025232500 -9.192452e-003 -1.508295e-001 8.109486e-001 3.075382e-001 8.151218e-001 3.135816e-001 6.456091e-002 -1.003771e-001
2070231000 9.372259e-003 -1.343005e-001 8.470938e-001 1.893731e-001 8.433014e-001 1.893057e-001 8.471100e-002 -9.382655e-002
2115229500 -5.462455e-002 -1.281326e-001 8.578695e-001 7.922897e-002 8.680462e-001 7.806710e-002 3.913908e-002 -1.175470e-001
2160228000 -3.048400e-002 -1.559061e-001 8.628865e-001 -4.681332e-002 8.625805e-001 -4.371168e-002 6.196285e-002 -1.110809e-001
2205226500 -6.930608e-002 -9.439080e-002 8.464571e-001 -1.565343e-001 8.496751e-001 -1.644952e-001 1.522520e-002 -1.304212e-001
2250225000 -8.896040e-002 -1.500081e-001 8.163370e-001 -2.782578e-001 8.208701e-001 -2.731716e-001 3.198807e-002 -1.246999e-001
2295223500 -6.864481e-002 -8.048774e-002 7.655740e-001 -3.784565e-001 7.640422e-001 -3.873413e-001 -1.325146e-002 -1.372258e-001
2340222000 -1.425075e-001 -1.100175e-001 7.060411e-001 -4.857381e-001 7.160641e-001 -4.878431e-001 -1.495531e-004 -1.305167e-001
2385220500 -7.986611e-002 -8.720379e-002 6.334369e-001 -5.709443e-001 6.251861e-001 -5.739366e-001 -4.192349e-002 -1.418358e-001
2430219000 -1.599980e-001 -5.374575e-002 5.516186e-001 -6.523709e-001 5.568509e-001 -6.603325e-001 -3.781045e-002 -1.306302e-001
2475217500 -1.146565e-001 -8.474892e-002 4.576664e-001 -7.170035e-001 4.482569e-001 -7.169696e-001 -7.230886e-002 -1.357561e-001
2520216000 -1.486340e-001 -1.131830e-002 3.520795e-001 -7.731537e-001 3.505515e-001 -7.815999e-001 -7.952995e-002 -1.189019e-001
2565214500 -1.549265e-001 -5.240860e-002 2.465264e-001 -8.081126e-001 2.426539e-001 -8.085330e-001 -1.053335e-001 -1.229542e-001
2610213000 -1.352054e-001 1.119750e-002 1.297412e-001 -8.359756e-001 1.265150e-001 -8.418909e-001 -1.147738e-001 -9.234944e-002
2655211500 -1.753371e-001 1.187777e-003 2.189556e-002 -8.435381e-001 1.817498e-002 -8.434304e-001 -1.346948e-001 -1.002431e-001
2700210000 -1.314018e-001 2.599974e-002 -9.822175e-002 -8.317246e-001 -1.041210e-001 -8.393067e-001 -1.437728e-001 -5.495691e-002
2745208500 -1.659086e-001 5.653605e-002 -2.052608e-001 -8.184052e-001 -2.097017e-001 -8.164319e-001 -1.604926e-001 -6.689665e-002
2790207000 -1.336429e-001 5.183860e-002 -3.150699e-001 -7.710664e-001 -3.196747e-001 -7.730865e-001 -1.580316e-001 -1.163828e-002
2835205500 -1.448672e-001 9.786266e-002 -4.185451e-001 -7.300231e-001 -4.219857e-001 -7.277554e-001 -1.761623e-001 -2.283878e-002
2880204000 -1.255354e-001 8.614798e-002 -5.033087e-001 -6.566846e-001 -5.103436e-001 -6.580215e-001 -1.593122e-001 3.096721e-002
2925202500 -1.182231e-001 1.313911e-001 -6.000618e-001 -5.854013e-001 -5.989965e-001 -5.873845e-001 -1.755198e-001 2.951262e-002
2970201000 -1.033135e-001 1.192488e-001 -6.586928e-001 -5.017164e-001 -6.637507e-001 -4.998551e-001 -1.505899e-001 7.407457e-002
3015199500 -7.888124e-002 1.611695e-001 -7.299841e-001 -4.073826e-001 -7.293219e-001 -4.042946e-001 -1.594622e-001 8.138413e-002
3060198000 -7.488320e-002 1.422226e-001 -7.674736e-001 -2.949207e-001 -7.819321e-001 -2.988395e-001 -1.308665e-001 1.099644e-001
3105196500 -3.324545e-002 1.742976e-001 -8.057382e-001 -2.061013e-001 -7.980313e-001 -2.089607e-001 -1.199095e-001 1.219203e-001
3150195000 -4.053826e-002 1.668689e-001 -8.098476e-001 -8.430542e-002 -8.164716e-001 -7.281827e-002 -1.005042e-001 1.425307e-001
3195193500 2.165034e-002 1.739905e-001 -8.389888e-001 2.092984e-002 -8.335719e-001 1.333553e-002 -7.271981e-002 1.461715e-001
3240192000 2.471892e-003 1.830612e-001 -8.012360e-001 1.244460e-001 -7.984980e-001 1.401947e-001 -5.790779e-002 1.641080e-001
3285190500 6.718116e-002 1.494231e-001 -7.967798e-001 2.436932e-001 -7.986269e-001 2.394239e-001 -2.102483e-002 1.602958e-001
3330189000 6.120095e-002 1.799581e-001 -7.449853e-001 3.282210e-001 -7.327079e-001 3.397764e-001 -1.249292e-002 1.751041e-001
3375187500 9.081359e-002 1.226913e-001 -6.945210e-001 4.472452e-001 -7.021403e-001 4.469442e-001 2.943278e-002 1.525140e-001
3420186000 1.266447e-001 1.594201e-001 -6.347873e-001 5.148668e-001 -6.231812e-001 5.188518e-001 2.900059e-002 1.701230e-001
3465184500 1.029582e-001 1.008994e-001 -5.399582e-001 6.083274e-001 -5.509713e-001 6.148849e-001 6.218345e-002 1.348511e-001
3510183000 1.698319e-001 1.077495e-001 -4.742761e-001 6.715208e-001 -4.628350e-001 6.711371e-001 7.189102e-002 1.537347e-001
3555181500 1.198876e-001 8.897874e-002 -3.623765e-001 7.219512e-001 -3.637701e-001 7.275614e-001 9.509284e-002 1.111048e-001
3600180000 1.876076e-001 4.410698e-002 -2.767392e-001 7.735926e-001 -2.691555e-001 7.706905e-001 1.076327e-001 1.237715e-001
3645178500 1.471491e-001 6.408907e-002 -1.623934e-001 7.885044e-001 -1.603062e-001 7.967480e-001 1.174075e-001 8.097563e-002
3690177000 1.702370e-001 -1.398260e-002 -6.009904e-002 8.209999e-001 -5.045572e-002 8.148776e-001 1.284569e-001 8.515047e-002
3735175500 1.700102e-001 2.698451e-002 4.663073e-002 8.029125e-001 5.377122e-002 8.127523e-001 1.293628e-001 5.045902e-002
3780174000 1.447782e-001 -4.407206e-002 1.617032e-001 8.017968e-001 1.623038e-001 7.990913e-001 1.385439e-001 4.521096e-002
3825172500 1.772756e-001 -2.914889e-002 2.580798e-001 7.640402e-001 2.676885e-001 7.691314e-001 1.369466e-001 2.524194e-002
3870171000 1.203454e-001 -6.168657e-002 3.652306e-001 7.298402e-001 3.636855e-001 7.254782e-001 1.378042e-001 7.804017e-003
3915169500 1.564353e-001 -7.829574e-002 4.514454e-001 6.681873e-001 4.673053e-001 6.656138e-001 1.394518e-001 -4.142333e-003
3960168000 1.058051e-001 -7.470635e-002 5.414044e-001 6.013175e-001 5.399296e-001 6.056099e-001 1.196748e-001 -3.247736e-002
4005166500 1.180103e-001 -1.162384e-001 6.142420e-001 5.221786e-001 6.256840e-001 5.150463e-001 1.373669e-001 -3.260471e-002
4050165000 9.600530e-002 -8.656721e-002 6.794567e-001 4.362250e-001 6.808304e-001 4.451160e-001 1.012079e-001 -5.232815e-002
4095163500 8.400441e-002 -1.341582e-001 7.283027e-001 3.416411e-001 7.337987e-001 3.301293e-001 1.267215e-001 -5.525444e-002
4140162000 8.012068e-002 -9.975690e-002 7.732377e-001 2.377703e-001 7.787125e-001 2.481906e-001 8.224943e-002 -6.889577e-002
4185160500 4.486078e-002 -1.404271e-001 7.919990e-001 1.349201e-001 7.841206e-001 1.237554e-001 1.096457e-001 -8.292803e-002
4230159000 6.723242e-002 -1.185499e-001 8.067828e-001 2.048484e-002 8.188092e-001 2.591545e-002 6.337746e-002 -8.049965e-002
4275157500 6.912266e-003 -1.326707e-001 8.033059e-001 -7.564159e-002 7.927597e-001 -8.471029e-002 8.815380e-002 -1.049287e-001
4320156000 3.995465e-002 -1.300242e-001 7.821904e-001 -1.931538e-001 7.909619e-001 -2.001537e-001 5.179006e-002 -9.082971e-002
4365154500 -2.276453e-002 -1.189287e-001 7.581444e-001 -2.806904e-001 7.470626e-001 -2.840092e-001 6.080769e-002 -1.157840e-001
4410153000 6.988781e-003 -1.455287e-001 7.034483e-001 -3.875231e-001 7.012444e-001 -4.030227e-001 3.468931e-002 -1.051598e-001
4455151500 -4.192269e-002 -9.981257e-002 6.592847e-001 -4.842549e-001 6.472573e-001 -4.731331e-001 1.910094e-002 -1.184458e-001
4500150000 -3.378845e-002 -1.429321e-001 5.816979e-001 -5.582727e-001 5.762079e-001 -5.607651e-001 9.040889e-003 -1.081922e-001
4545148500 -4.891425e-002 -9.130860e-002 4.993939e-001 -6.325737e-001 4.946175e-001 -6.364386e-001 -8.966988e-003 -1.053112e-001
4590147000 -8.376070e-002 -1.288676e-001 4.083155e-001 -6.885140e-001 4.053787e-001 -7.055697e-001 -8.238955e-003 -1.189572e-001
4635145500 -5.434347e-002 -8.315868e-002 3.075136e-001 -7.400789e-001 3.138500e-001 -7.279951e-001 -3.493267e-002 -9.211909e-002
4680144000 -1.189592e-001 -8.675529e-002 2.185766e-001 -7.733561e-001 1.883400e-001 -7.731823e-001 -4.605999e-002 -1.133851e-001
4725142500 -7.407159e-002 -8.429663e-002 9.757175e-002 -7.838296e-001 1.250410e-001 -7.974036e-001 -5.709098e-002 -6.256231e-002
4770141000 -1.238728e-001 -2.858257e-002 8.616688e-004 -8.035049e-001 -2.147462e-002 -7.794566e-001 -8.464431e-002 -9.523431e-002
4815139500 -1.042015e-001 -6.854158e-002 -1.002613e-001 -7.829980e-001 -1.053207e-001 -8.088257e-001 -6.678165e-002 -3.991520e-002
4860138000 -1.112104e-001 1.102957e-002 -2.225849e-001 -7.795475e-001 -2.137850e-001 -7.412582e-001 -1.086973e-001 -5.898046e-002
4905136500 -1.338206e-001 -3.127187e-002 -2.924112e-001 -7.244856e-001 -3.200306e-001 -7.502357e-001 -6.658968e-002 -2.144674e-002
4950135000 -9.569336e-002 4.120943e-002 -4.242317e-001 -6.757573e-001 -3.916201e-001 -6.619411e-001 -1.111862e-001 -1.263318e-002
4995133500 -1.412863e-001 2.419565e-002 -4.700863e-001 -6.372826e-001 -5.081185e-001 -6.220258e-001 -6.512508e-002 -2.607615e-003
5040132000 -7.868405e-002 5.866303e-002 -5.783590e-001 -5.288440e-001 -5.547190e-001 -5.481595e-001 -1.003128e-001 3.123253e-002
5085130500 -1.186842e-001 8.400987e-002 -6.323917e-001 -4.891643e-001 -6.476222e-001 -4.483683e-001 -7.346686e-002 2.379769e-002
5130129000 -6.344672e-002 6.651144e-002 -6.805769e-001 -3.581263e-001 -6.883870e-001 -3.854298e-001 -7.092770e-002 5.933107e-002
5175127500 -7.384662e-002 1.175665e-001 -7.457875e-001 -2.899658e-001 -7.334838e-001 -2.555743e-001 -6.601292e-002 5.699285e-002
5220126000 -5.386807e-002 7.985924e-002 -7.457595e-001 -1.808320e-001 -7.679281e-001 -1.866065e-001 -3.224469e-002 7.468595e-002
5265124500 -2.520185e-002 1.320204e-001 -7.984185e-001 -6.609303e-002 -7.733408e-001 -6.029363e-002 -4.214631e-002 8.815261e-002
5310123000 -3.621010e-002 9.819764e-002 -7.727191e-001 1.380501e-002 -7.877455e-001 3.133841e-002 1.568046e-003 6.933451e-002
5355121500 2.723800e-002 1.195127e-001 -7.721298e-001 1.542046e-001 -7.575611e-001 1.388040e-001 -1.677956e-002 1.021030e-001
5400120000 -1.108462e-002 1.137856e-001 -7.480145e-001 2.102583e-001 -7.487956e-001 2.424357e-001 2.489093e-002 5.142068e-002
5445118500 5.554200e-002 9.127156e-002 -6.977910e-001 3.499642e-001 -7.033705e-001 3.301264e-001 1.960981e-002 1.015405e-001
5490117000 2.660480e-002 1.195272e-001 -6.741767e-001 4.088765e-001 -6.511841e-001 4.261290e-001 3.205790e-002 3.265893e-002
5535115500 7.012852e-002 6.108060e-002 -5.823869e-001 5.124044e-001 -5.888968e-001 5.080056e-001 5.624473e-002 8.074617e-002
5580114000 6.320772e-002 1.054359e-001 -5.290014e-001 5.821678e-001 -5.188712e-001 5.770087e-001 2.773563e-002 2.159439e-002
5625112500 5.782327e-002 4.161720e-002 -4.334149e-001 6.431485e-001 -4.291615e-001 6.435353e-001 6.638666e-002 5.260043e-002
5670111000 9.497923e-002 7.832907e-002 -3.493360e-001 7.004933e-001 -3.485344e-001 6.926121e-001 2.881184e-002 1.560097e-002
5715109500 4.309756e-002 2.786141e-002 -2.564601e-001 7.375609e-001 -2.369721e-001 7.248191e-001 6.309932e-002 2.240790e-002
5760108000 9.490955e-002 3.340913e-002 -1.436897e-001 7.633415e-001 -1.430442e-001 7.625341e-001 2.271693e-002 2.060604e-002
5805106500 2.520186e-002 3.509951e-002 -5.666188e-002 7.775393e-001 -4.430572e-002 7.506003e-001 3.259001e-002 -1.810252e-003
5850105000 7.815312e-002 1.371403e-003 5.881279e-002 7.638935e-001 6.933668e-002 7.713661e-001 3.146577e-002 2.416062e-002
5895103500 2.945882e-002 5.065516e-002 1.640171e-001 7.507814e-001 1.491020e-001 7.407530e-001 1.126518e-003 3.831190e-003
5940102000 3.889209e-002 -4.040665e-003 2.571623e-001 7.202058e-001 2.830006e-001 7.152887e-001 3.125117e-002 2.383927e-002
5985100500 4.966063e-002 5.694891e-002 3.491927e-001 6.712447e-001 3.374064e-001 6.914248e-001 -2.500636e-002 3.779484e-002
6030099000 7.793159e-003 1.463187e-002 4.431815e-001 6.290389e-001 4.511451e-001 6.078151e-001 2.969539e-002 2.796190e-002
6075097500 6.374206e-002 4.773625e-002 5.075318e-001 5.533591e-001 5.139914e-001 5.836907e-001 -2.534682e-002 7.665331e-002
6120096000 -4.684382e-003 5.371782e-002 5.986388e-001 4.879706e-001 5.789280e-001 4.656540e-001 2.525608e-002 3.791620e-002
6165094500 5.589819e-002 3.345090e-002 6.233765e-001 4.035011e-001 6.580889e-001 4.201561e-001 5.832668e-004 1.112769e-001
6210093000 1.527876e-002 9.757068e-002 6.963056e-001 3.045692e-001 6.734685e-001 3.052416e-001 1.989180e-002 5.759235e-002
6255091500 4.208679e-002 3.350460e-002 7.138655e-001 2.296379e-001 7.463166e-001 2.143134e-001 3.858312e-002 1.282362e-001
6300090000 7.614148e-002 1.114602e-001 7.388662e-001 1.048403e-001 7.319696e-001 1.293898e-001 3.481873e-002 8.643856e-002
6345088500 4.228734e-002 5.763547e-002 7.572915e-001 3.703937e-002 7.618344e-001 -2.347375e-003 7.934045e-002 1.210085e-001
6390087000 1.186942e-001 9.490256e-002 7.303625e-001 -8.318259e-002 7.503005e-001 -6.400368e-002 6.996458e-002 1.155533e-001
6435085500 6.128205e-002 8.802128e-002 7.476890e-001 -1.700877e-001 7.222884e-001 -1.976244e-001 1.111492e-001 1.062087e-001
6480084000 1.382762e-001 5.864207e-002 6.831396e-001 -2.543813e-001 7.081726e-001 -2.597059e-001 1.248704e-001 1.206974e-001
6525082500 1.137851e-001 9.157367e-002 6.547579e-001 -3.546337e-001 6.546546e-001 -3.661162e-001 1.316854e-001 8.480756e-002
6570081000 1.462320e-001 3.224496e-002 6.062912e-001 -4.332884e-001 6.016192e-001 -4.474802e-001 1.809166e-001 9.222874e-002
6615079500 1.619797e-001 6.493753e-002 5.471686e-001 -5.041624e-001 5.341111e-001 -5.224698e-001 1.489825e-001 6.124069e-002
6660078000 1.447837e-001 1.500207e-002 4.575774e-001 -5.713944e-001 4.645446e-001 -5.830676e-001 2.083059e-001 4.448182e-002
6705076500 1.876846e-001 7.355098e-003 4.007105e-001 -6.409677e-001 3.800545e-001 -6.433360e-001 1.721648e-001 2.856592e-002
6750075000 1.519913e-001 -3.910471e-003 2.968224e-001 -6.612387e-001 2.940785e-001 -6.795571e-001 2.189422e-001 -4.548541e-003
6795073500 1.838141e-001 -5.006284e-002 2.086610e-001 -7.277486e-001 1.985241e-001 -7.207053e-001 1.793938e-001 -8.149231e-003
6840072000 1.634342e-001 -3.388609e-002 1.274721e-001 -7.143967e-001 1.114827e-001 -7.344851e-001 2.119468e-001 -5.218634e-002
6885070500 1.557121e-001 -9.736098e-002 -1.303367e-003 -7.496901e-001 4.801497e-003 -7.415330e-001 1.771198e-001 -5.088025e-002
