!Agilent Technologies,E8358A,US40210021,A.06.04.30
!Agilent E8358A: A.06.04.30
!Date: Saturday, April 21, 2018 14:29:08
!Correction: S11(Full 2 Port(1,2)) S21(Full 2 Port(1,2)) S12(Full 2 Port(1,2)) S22(Full 2 Port(1,2)) 
!S2P File: Measurements: S11, S21, S12, S22:
# Hz S  RI   R 50
300000 9.973425e-001 -3.307099e-003 -3.232767e-004 -1.941385e-004 -8.389064e-005 4.904245e-004 9.992726e-001 -3.020834e-003
45298500 9.430129e-001 -2.566995e-001 2.102596e-002 1.207992e-001 2.048931e-002 1.213773e-001 9.421273e-001 -2.572569e-001
90297000 8.160822e-001 -4.783522e-001 1.130673e-001 2.154438e-001 1.140252e-001 2.156769e-001 8.212854e-001 -4.727860e-001
135295500 6.526304e-001 -6.335058e-001 2.410445e-001 2.567546e-001 2.402200e-001 2.564540e-001 6.484937e-001 -6.264952e-001
180294000 4.430832e-001 -7.249290e-001 3.774639e-001 2.343526e-001 3.804609e-001 2.353297e-001 4.557785e-001 -7.189922e-001
225292500 2.641442e-001 -7.585319e-001 4.984983e-001 1.650590e-001 4.996226e-001 1.658418e-001 2.622575e-001 -7.501814e-001
270291000 7.487953e-002 -7.300571e-001 5.887867e-001 4.819524e-002 5.915329e-001 4.617536e-002 9.497401e-002 -7.305252e-001
315289500 -5.728639e-002 -6.883263e-001 6.385027e-001 -8.099815e-002 6.394684e-001 -8.051000e-002 -5.373232e-002 -6.772711e-001
360288000 -1.764546e-001 -5.938689e-001 6.508517e-001 -2.284591e-001 6.488535e-001 -2.337153e-001 -1.602712e-001 -6.008891e-001
405286500 -2.641639e-001 -5.233520e-001 6.189107e-001 -3.617524e-001 6.198514e-001 -3.640138e-001 -2.517610e-001 -5.173114e-001
450285000 -3.091523e-001 -4.162003e-001 5.631695e-001 -5.008059e-001 5.606318e-001 -5.027583e-001 -2.976978e-001 -4.297350e-001
495283500 -3.670219e-001 -3.376312e-001 4.750721e-001 -5.958093e-001 4.767671e-001 -5.995622e-001 -3.483273e-001 -3.406483e-001
540282000 -3.596338e-001 -2.590576e-001 3.670114e-001 -7.016580e-001 3.623664e-001 -7.001288e-001 -3.526180e-001 -2.650833e-001
585280500 -3.834608e-001 -1.666889e-001 2.508336e-001 -7.631483e-001 2.500571e-001 -7.538155e-001 -3.757684e-001 -1.894525e-001
630279000 -3.698468e-001 -1.229833e-001 1.257884e-001 -8.018939e-001 1.165569e-001 -8.101581e-001 -3.503145e-001 -1.273477e-001
675277500 -3.488984e-001 -3.803996e-002 -1.286959e-002 -8.222314e-001 -8.163827e-003 -8.195657e-001 -3.581035e-001 -6.098264e-002
720276000 -3.430612e-001 -2.879234e-003 -1.346883e-001 -8.219050e-001 -1.530323e-001 -8.228434e-001 -3.198949e-001 -2.164634e-002
765274500 -2.995862e-001 5.087037e-002 -2.740696e-001 -7.896859e-001 -2.735016e-001 -7.869662e-001 -3.175106e-001 3.483363e-002
810273000 -2.873688e-001 8.532920e-002 -3.932179e-001 -7.493938e-001 -3.968805e-001 -7.495875e-001 -2.683560e-001 6.229623e-002
855271500 -2.408265e-001 1.174629e-001 -5.050938e-001 -6.746162e-001 -5.054756e-001 -6.752439e-001 -2.620187e-001 1.029316e-001
900270000 -2.227537e-001 1.419609e-001 -6.082016e-001 -6.038585e-001 -6.083520e-001 -6.023010e-001 -2.120514e-001 1.167130e-001
945268500 -1.707077e-001 1.609311e-001 -6.871434e-001 -5.002156e-001 -6.913286e-001 -4.965068e-001 -2.023670e-001 1.473831e-001
990267000 -1.587862e-001 1.790542e-001 -7.626315e-001 -4.013564e-001 -7.640767e-001 -4.012133e-001 -1.499358e-001 1.543917e-001
1035265500 -1.021496e-001 1.739653e-001 -8.100522e-001 -2.836963e-001 -8.147113e-001 -2.771991e-001 -1.431230e-001 1.733439e-001
1080264000 -8.902437e-002 2.034255e-001 -8.478217e-001 -1.596269e-001 -8.487135e-001 -1.640487e-001 -8.882021e-002 1.711978e-001
1125262500 -4.746924e-002 1.650315e-001 -8.650507e-001 -3.752092e-002 -8.633304e-001 -3.194816e-002 -8.407294e-002 1.810980e-001
1170261000 -9.416007e-003 2.043387e-001 -8.584991e-001 8.906596e-002 -8.636537e-001 8.889341e-002 -3.054854e-002 1.744199e-001
1215259500 -1.025731e-002 1.574669e-001 -8.450328e-001 2.151426e-001 -8.433525e-001 2.177945e-001 -3.210078e-002 1.783893e-001
1260258000 6.471362e-002 1.665999e-001 -7.999479e-001 3.248783e-001 -8.017704e-001 3.309497e-001 2.380903e-002 1.639657e-001
1305256500 3.212097e-002 1.575163e-001 -7.519349e-001 4.478181e-001 -7.473490e-001 4.506767e-001 1.645759e-002 1.603039e-001
1350255000 1.008886e-001 1.071500e-001 -6.800587e-001 5.389730e-001 -6.766946e-001 5.447243e-001 7.023235e-002 1.418498e-001
1395253500 8.964869e-002 1.415194e-001 -5.919603e-001 6.398919e-001 -5.926651e-001 6.412839e-001 5.374264e-002 1.334342e-001
1440252000 1.023730e-001 5.989324e-002 -5.029079e-001 7.137119e-001 -4.991530e-001 7.117476e-001 1.055170e-001 1.098403e-001
1485250500 1.408008e-001 8.631426e-002 -3.942835e-001 7.759793e-001 -3.898917e-001 7.787353e-001 8.092139e-002 9.877421e-002
1530249000 1.007434e-001 3.473061e-002 -2.810662e-001 8.301863e-001 -2.786376e-001 8.246490e-001 1.284000e-001 7.204867e-002
1575247500 1.563177e-001 1.532592e-002 -1.600539e-001 8.574603e-001 -1.635605e-001 8.632411e-001 9.903495e-002 6.116588e-002
1620246000 1.101307e-001 1.304338e-002 -4.230874e-002 8.727895e-001 -4.057631e-002 8.626285e-001 1.363191e-001 3.456268e-002
1665244500 1.327694e-001 -4.322797e-002 8.277170e-002 8.668033e-001 8.466648e-002 8.730456e-001 1.049129e-001 2.230964e-002
1710243000 1.147008e-001 -2.827476e-002 2.002254e-001 8.488302e-001 1.969046e-001 8.418291e-001 1.357357e-001 -1.139780e-003
1755241500 1.022524e-001 -7.546072e-002 3.159920e-001 8.062784e-001 3.224822e-001 8.125405e-001 1.013283e-001 -1.376626e-002
1800240000 9.444477e-002 -6.899042e-002 4.274288e-001 7.570045e-001 4.217074e-001 7.545636e-001 1.240739e-001 -3.040402e-002
1845238500 7.908709e-002 -9.850844e-002 5.285691e-001 6.863626e-001 5.281856e-001 6.924872e-001 8.968861e-002 -4.502922e-002
1890237000 6.315786e-002 -9.375771e-002 6.202591e-001 6.098373e-001 6.166736e-001 6.105733e-001 1.082287e-001 -5.521686e-002
1935235500 4.644745e-002 -1.243910e-001 6.935036e-001 5.173793e-001 6.916814e-001 5.199339e-001 7.405739e-002 -7.171658e-002
1980234000 3.824163e-002 -1.020344e-001 7.630889e-001 4.142975e-001 7.642965e-001 4.099106e-001 9.201625e-002 -7.238768e-002
2025232500 -3.938848e-003 -1.338811e-001 8.064026e-001 3.098835e-001 8.084022e-001 3.184878e-001 5.093662e-002 -9.597407e-002
2070231000 1.761545e-002 -1.167661e-001 8.437449e-001 1.870776e-001 8.420533e-001 1.856871e-001 7.430001e-002 -8.553038e-002
2115229500 -4.452137e-002 -1.113909e-001 8.586226e-001 8.398422e-002 8.643661e-001 8.314162e-002 2.838091e-002 -1.080726e-001
2160228000 -1.621872e-002 -1.393049e-001 8.569977e-001 -4.752296e-002 8.603147e-001 -4.829617e-002 5.332256e-002 -9.983081e-002
2205226500 -5.632997e-002 -7.980751e-002 8.468943e-001 -1.549599e-001 8.480015e-001 -1.582696e-001 6.516179e-003 -1.179771e-001
2250225000 -7.258622e-002 -1.365810e-001 8.108591e-001 -2.776394e-001 8.157670e-001 -2.762803e-001 2.666027e-002 -1.110560e-001
2295223500 -5.120985e-002 -6.822845e-002 7.683483e-001 -3.782607e-001 7.679439e-001 -3.829759e-001 -1.712639e-002 -1.194716e-001
2340222000 -1.228315e-001 -1.012487e-001 7.026245e-001 -4.815787e-001 7.092446e-001 -4.859516e-001 -2.308495e-003 -1.163756e-001
2385220500 -5.741867e-002 -7.694100e-002 6.350209e-001 -5.730685e-001 6.308867e-001 -5.756380e-001 -3.858634e-002 -1.219207e-001
2430219000 -1.400431e-001 -4.796816e-002 5.496072e-001 -6.486876e-001 5.505474e-001 -6.551517e-001 -3.457363e-002 -1.132657e-001
2475217500 -9.007768e-002 -7.895346e-002 4.545050e-001 -7.186748e-001 4.510480e-001 -7.214600e-001 -6.212860e-002 -1.205603e-001
2520216000 -1.249795e-001 -9.361695e-003 3.542279e-001 -7.681335e-001 3.489687e-001 -7.736997e-001 -6.842916e-002 -1.036350e-001
2565214500 -1.278957e-001 -5.421915e-002 2.440158e-001 -8.092117e-001 2.423027e-001 -8.137744e-001 -8.953982e-002 -1.113639e-001
2610213000 -1.104592e-001 9.802712e-003 1.353321e-001 -8.322082e-001 1.302826e-001 -8.339648e-001 -9.933469e-002 -8.181906e-002
2655211500 -1.482546e-001 -7.417322e-003 1.899476e-002 -8.438454e-001 1.358408e-002 -8.465746e-001 -1.158414e-001 -9.472690e-002
2700210000 -1.048185e-001 1.730153e-002 -9.328429e-002 -8.326731e-001 -9.697440e-002 -8.352726e-001 -1.229502e-001 -5.123650e-002
2745208500 -1.414402e-001 4.206717e-002 -2.070944e-001 -8.159361e-001 -2.155261e-001 -8.167559e-001 -1.395735e-001 -6.828978e-002
2790207000 -1.082950e-001 3.647306e-002 -3.112640e-001 -7.745541e-001 -3.131910e-001 -7.764023e-001 -1.357370e-001 -1.547170e-002
2835205500 -1.227812e-001 7.969513e-002 -4.202201e-001 -7.272063e-001 -4.231851e-001 -7.238315e-001 -1.572228e-001 -3.018520e-002
2880204000 -1.028900e-001 6.521823e-002 -5.042266e-001 -6.611346e-001 -5.081665e-001 -6.641121e-001 -1.398146e-001 1.879544e-002
2925202500 -9.953479e-002 1.095695e-001 -5.957785e-001 -5.831481e-001 -5.973194e-001 -5.805694e-001 -1.594353e-001 1.585503e-002
2970201000 -8.518153e-002 9.348103e-002 -6.628697e-001 -5.032448e-001 -6.663787e-001 -5.042018e-001 -1.369848e-001 5.412108e-002
3015199500 -6.316002e-002 1.348629e-001 -7.297225e-001 -4.071760e-001 -7.304253e-001 -4.026872e-001 -1.474342e-001 6.108324e-002
3060198000 -6.061117e-002 1.138169e-001 -7.648462e-001 -3.034857e-001 -7.807784e-001 -2.921292e-001 -1.226362e-001 8.901535e-002
3105196500 -2.359842e-002 1.461021e-001 -8.032616e-001 -1.974593e-001 -8.044646e-001 -2.072130e-001 -1.177262e-001 9.677881e-002
3150195000 -3.304341e-002 1.304547e-001 -8.162974e-001 -9.105976e-002 -8.146144e-001 -7.488349e-002 -9.993399e-002 1.173688e-001
3195193500 2.407048e-002 1.398598e-001 -8.285999e-001 2.751373e-002 -8.376318e-001 1.897530e-002 -8.090987e-002 1.206403e-001
3240192000 2.252830e-003 1.459467e-001 -8.082866e-001 1.258904e-001 -7.969487e-001 1.391025e-001 -6.780140e-002 1.409415e-001
3285190500 6.391554e-002 1.160764e-001 -7.866005e-001 2.465393e-001 -8.010325e-001 2.455917e-001 -3.492304e-002 1.360705e-001
3330189000 5.490353e-002 1.463132e-001 -7.508054e-001 3.360119e-001 -7.330011e-001 3.377569e-001 -3.068798e-002 1.521900e-001
3375187500 8.174298e-002 8.903829e-002 -6.869432e-001 4.417299e-001 -6.983997e-001 4.531560e-001 7.491234e-003 1.367252e-001
3420186000 1.101162e-001 1.242889e-001 -6.358424e-001 5.226756e-001 -6.257029e-001 5.163295e-001 6.643008e-003 1.566252e-001
3465184500 8.581632e-002 6.852534e-002 -5.392759e-001 6.000132e-001 -5.427232e-001 6.198551e-001 3.803781e-002 1.286331e-001
3510183000 1.442704e-001 7.641920e-002 -4.678110e-001 6.791530e-001 -4.662306e-001 6.691702e-001 4.340335e-002 1.480082e-001
3555181500 9.589986e-002 5.722304e-002 -3.622078e-001 7.148734e-001 -3.566335e-001 7.290566e-001 6.849596e-002 1.116155e-001
3600180000 1.573679e-001 1.599439e-002 -2.665086e-001 7.800084e-001 -2.693782e-001 7.745137e-001 7.893784e-002 1.276154e-001
3645178500 1.155052e-001 3.696832e-002 -1.666077e-001 7.859895e-001 -1.573200e-001 7.941773e-001 9.118830e-002 9.273923e-002
3690177000 1.382124e-001 -3.517450e-002 -4.562976e-002 8.203658e-001 -4.821707e-002 8.185196e-001 9.972532e-002 1.009501e-001
3735175500 1.317624e-001 7.451080e-003 4.258775e-002 8.024448e-001 5.826660e-002 8.059341e-001 1.068301e-001 7.049284e-002
3780174000 1.070026e-001 -5.865218e-002 1.720314e-001 7.939782e-001 1.680794e-001 7.986197e-001 1.154065e-001 7.120316e-002
3825172500 1.346421e-001 -4.056394e-002 2.554333e-001 7.685535e-001 2.701181e-001 7.637045e-001 1.208088e-001 5.140625e-002
3870171000 8.063956e-002 -7.110992e-002 3.671337e-001 7.130123e-001 3.698067e-001 7.227281e-001 1.242862e-001 3.871521e-002
3915169500 1.149668e-001 -8.391657e-002 4.545759e-001 6.733441e-001 4.657381e-001 6.612753e-001 1.339848e-001 2.828769e-002
3960168000 6.316340e-002 -7.326164e-002 5.404834e-001 5.896757e-001 5.486176e-001 5.981263e-001 1.201636e-001 3.566425e-003
4005166500 7.222152e-002 -1.100218e-001 6.215786e-001 5.247207e-001 6.214092e-001 5.108556e-001 1.407994e-001 9.733982e-004
4050165000 5.192954e-002 -7.845650e-002 6.734066e-001 4.300835e-001 6.866825e-001 4.358919e-001 1.129924e-001 -2.082283e-002
4095163500 4.066270e-002 -1.196392e-001 7.356136e-001 3.359000e-001 7.307528e-001 3.284165e-001 1.433887e-001 -2.257349e-002
4140162000 3.913808e-002 -8.674671e-002 7.655367e-001 2.374746e-001 7.793689e-001 2.373221e-001 1.044980e-001 -4.044004e-002
4185160500 2.889410e-003 -1.197734e-001 7.969213e-001 1.277034e-001 7.854083e-001 1.228476e-001 1.355567e-001 -5.621761e-002
4230159000 2.580944e-002 -9.428580e-002 8.000250e-001 2.421245e-002 8.152701e-001 1.436484e-002 9.262862e-002 -6.098536e-002
4275157500 -3.098329e-002 -1.005482e-001 8.015072e-001 -8.634765e-002 7.887540e-001 -9.060026e-002 1.193458e-001 -8.999267e-002
4320156000 1.106794e-003 -9.845422e-002 7.784380e-001 -1.842057e-001 7.813444e-001 -2.062570e-001 8.658694e-002 -7.982013e-002
4365154500 -5.412616e-002 -8.411971e-002 7.469530e-001 -2.922255e-001 7.429544e-001 -2.902204e-001 9.679496e-002 -1.108487e-001
4410153000 -2.284958e-002 -1.067715e-001 7.023590e-001 -3.874868e-001 6.866419e-001 -4.003117e-001 7.049377e-002 -1.073142e-001
4455151500 -6.632814e-002 -6.002769e-002 6.434878e-001 -4.879097e-001 6.450676e-001 -4.804308e-001 5.523686e-002 -1.271854e-001
4500150000 -5.484260e-002 -1.000288e-001 5.762961e-001 -5.577835e-001 5.683796e-001 -5.608936e-001 4.152201e-002 -1.215415e-001
4545148500 -6.462040e-002 -4.428342e-002 4.941359e-001 -6.319053e-001 4.824246e-001 -6.333605e-001 2.035047e-002 -1.236968e-001
4590147000 -9.773272e-002 -7.786518e-002 3.966610e-001 -6.771745e-001 4.114831e-001 -6.870654e-001 1.443179e-002 -1.376769e-001
4635145500 -5.859919e-002 -3.308679e-002 2.988539e-001 -7.550071e-001 2.906461e-001 -7.266457e-001 -1.422929e-002 -1.175188e-001
4680144000 -1.229171e-001 -2.841304e-002 2.229658e-001 -7.584669e-001 2.004298e-001 -7.762428e-001 -2.804555e-002 -1.377356e-001
4725142500 -7.264709e-002 -3.298461e-002 7.941492e-002 -7.850559e-001 1.047671e-001 -7.752915e-001 -4.772146e-002 -9.211375e-002
4770141000 -1.150848e-001 2.118268e-002 1.249638e-002 -8.020381e-001 -1.705256e-002 -7.908624e-001 -7.557131e-002 -1.292373e-001
4815139500 -9.207328e-002 -1.896961e-002 -1.226926e-001 -7.673489e-001 -1.014177e-001 -7.797399e-001 -6.786754e-002 -7.001775e-002
4860138000 -9.435510e-002 6.069116e-002 -2.132914e-001 -7.831602e-001 -2.229630e-001 -7.529635e-001 -1.162916e-001 -9.421286e-002
4905136500 -1.139877e-001 1.531675e-002 -3.071013e-001 -7.068314e-001 -3.056493e-001 -7.257698e-001 -7.849929e-002 -4.702670e-002
4950135000 -6.875686e-002 8.083335e-002 -4.224162e-001 -6.830210e-001 -4.079517e-001 -6.666488e-001 -1.320577e-001 -3.751341e-002
4995133500 -1.150195e-001 6.296150e-002 -4.709187e-001 -6.172159e-001 -4.893037e-001 -6.163733e-001 -8.859281e-002 -1.702075e-002
5040132000 -4.390302e-002 8.950306e-002 -5.902947e-001 -5.338997e-001 -5.724376e-001 -5.362087e-001 -1.256899e-001 1.638545e-002
5085130500 -8.427592e-002 1.173527e-001 -6.210271e-001 -4.715393e-001 -6.259544e-001 -4.502618e-001 -9.786041e-002 1.362851e-002
5130129000 -2.480360e-002 9.418654e-002 -6.939422e-001 -3.527025e-001 -6.975574e-001 -3.649565e-001 -9.775221e-002 5.604519e-002
5175127500 -3.193391e-002 1.457698e-001 -7.282782e-001 -2.825872e-001 -7.188196e-001 -2.694135e-001 -9.119224e-002 5.253838e-002
5220126000 -8.990197e-003 9.946927e-002 -7.533654e-001 -1.633211e-001 -7.663595e-001 -1.614396e-001 -5.632507e-002 7.619227e-002
5265124500 2.551743e-002 1.501618e-001 -7.815842e-001 -7.067361e-002 -7.692026e-001 -7.687375e-002 -6.533611e-002 8.647993e-002
5310123000 1.188129e-002 1.100168e-001 -7.701833e-001 3.528218e-002 -7.709395e-001 4.649118e-002 -2.303034e-002 7.487287e-002
5355121500 7.440183e-002 1.257031e-001 -7.601652e-001 1.442444e-001 -7.723307e-001 1.293549e-001 -4.027775e-002 1.097670e-001
5400120000 3.668876e-002 1.119175e-001 -7.357574e-001 2.305794e-001 -7.203678e-001 2.478376e-001 5.135192e-003 6.705089e-002
5445118500 1.029213e-001 8.266029e-002 -6.943960e-001 3.368879e-001 -7.199082e-001 3.318885e-001 2.942592e-003 1.236967e-001
5490117000 6.641404e-002 1.088371e-001 -6.472337e-001 4.181651e-001 -6.298317e-001 4.174393e-001 1.923410e-002 5.580673e-002
5535115500 1.106662e-001 4.654046e-002 -5.869589e-001 5.009873e-001 -5.964391e-001 5.174815e-001 4.284950e-002 1.057661e-001
5580114000 1.021132e-001 9.492578e-002 -5.052323e-001 5.780553e-001 -5.066658e-001 5.575734e-001 2.777305e-002 4.857555e-002
5625112500 9.325304e-002 2.275758e-002 -4.384405e-001 6.390771e-001 -4.235342e-001 6.599870e-001 6.974370e-002 8.600815e-002
5670111000 1.285807e-001 5.791982e-002 -3.295675e-001 6.835673e-001 -3.520574e-001 6.696629e-001 3.421253e-002 4.177788e-002
5715109500 7.294831e-002 4.115004e-003 -2.597419e-001 7.439126e-001 -2.205827e-001 7.346932e-001 7.492314e-002 4.799692e-002
5760108000 1.273650e-001 5.297267e-003 -1.376380e-001 7.430430e-001 -1.585114e-001 7.528408e-001 3.667596e-002 4.339370e-002
5805106500 5.692623e-002 8.783077e-003 -5.558234e-002 7.815287e-001 -2.219384e-002 7.464558e-001 5.308573e-002 1.867836e-002
5850105000 1.022395e-001 -2.543958e-002 5.818428e-002 7.402005e-001 4.812260e-002 7.721288e-001 5.071905e-002 3.925062e-002
5895103500 4.762411e-002 2.347754e-002 1.717994e-001 7.550388e-001 1.637130e-001 7.218439e-001 2.425046e-002 1.186615e-002
5940102000 5.724347e-002 -3.724106e-002 2.435751e-001 7.048399e-001 2.700125e-001 7.267421e-001 5.228091e-002 2.699069e-002
5985100500 6.053358e-002 2.573742e-002 3.604245e-001 6.611045e-001 3.442593e-001 6.655443e-001 -3.012764e-003 3.354432e-002
6030099000 1.853376e-002 -1.662702e-002 4.261323e-001 6.288205e-001 4.542904e-001 6.198465e-001 5.229871e-002 2.375545e-002
6075097500 6.948961e-002 1.883580e-002 5.110621e-001 5.349326e-001 5.012676e-001 5.611655e-001 -8.059087e-003 6.925726e-002
6120096000 -3.637958e-003 2.868254e-002 5.891543e-001 4.986515e-001 5.883605e-001 4.764434e-001 4.319734e-002 2.901466e-002
6165094500 5.871135e-002 5.025356e-003 6.171741e-001 3.823371e-001 6.360018e-001 4.097398e-001 1.831246e-002 9.986658e-002
6210093000 2.141593e-002 7.061256e-002 6.981307e-001 3.146093e-001 6.860882e-001 3.060133e-001 3.783783e-002 4.013203e-002
6255091500 4.159506e-002 4.593866e-003 6.957970e-001 2.151925e-001 7.221759e-001 2.117968e-001 5.342585e-002 1.107385e-001
6300090000 7.522742e-002 8.909820e-002 7.506262e-001 1.066514e-001 7.391881e-001 1.147771e-001 4.562448e-002 6.541911e-002
6345088500 3.823092e-002 3.905189e-002 7.372457e-001 3.650917e-002 7.468160e-001 1.499004e-002 8.976087e-002 1.015977e-001
6390087000 1.124598e-001 7.251688e-002 7.386711e-001 -8.914734e-002 7.480084e-001 -8.338691e-002 7.432777e-002 9.604182e-002
6435085500 5.191925e-002 6.801461e-002 7.275004e-001 -1.603687e-001 7.142950e-001 -1.800557e-001 1.160635e-001 8.224954e-002
6480084000 1.299571e-001 3.657490e-002 6.830854e-001 -2.690375e-001 6.967927e-001 -2.807225e-001 1.230696e-001 1.015115e-001
6525082500 1.023477e-001 7.203957e-002 6.502522e-001 -3.532525e-001 6.485200e-001 -3.650208e-001 1.260330e-001 6.506775e-002
6570081000 1.336619e-001 1.422368e-002 5.992293e-001 -4.325775e-001 5.944716e-001 -4.460260e-001 1.729281e-001 7.489995e-002
6615079500 1.492809e-001 5.068383e-002 5.305575e-001 -4.914756e-001 5.307480e-001 -5.061018e-001 1.430005e-001 4.249363e-002
6660078000 1.309452e-001 -3.026814e-003 4.517991e-001 -5.804370e-001 4.415516e-001 -5.869220e-001 1.975188e-001 3.377229e-002
6705076500 1.764162e-001 -1.096008e-003 4.002641e-001 -6.246530e-001 3.903084e-001 -6.401208e-001 1.592540e-001 1.708235e-002
6750075000 1.372520e-001 -1.337025e-002 2.804031e-001 -6.646653e-001 2.763788e-001 -6.614471e-001 2.095505e-001 -1.361526e-002
6795073500 1.702308e-001 -6.088829e-002 2.181723e-001 -7.212235e-001 1.980545e-001 -7.331232e-001 1.636905e-001 -1.863850e-002
6840072000 1.456967e-001 -4.024926e-002 1.094983e-001 -7.032081e-001 1.073871e-001 -7.111260e-001 2.055421e-001 -6.041169e-002
6885070500 1.434645e-001 -1.062153e-001 7.523500e-003 -7.521379e-001 -4.360726e-003 -7.523321e-001 1.643765e-001 -5.653635e-002
