!Agilent Technologies,E8358A,US40210021,A.06.04.30
!Agilent E8358A: A.06.04.30
!Date: Saturday, April 21, 2018 14:28:28
!Correction: S11(Full 2 Port(1,2)) S21(Full 2 Port(1,2)) S12(Full 2 Port(1,2)) S22(Full 2 Port(1,2)) 
!S2P File: Measurements: S11, S21, S12, S22:
# Hz S  RI   R 50
300000 9.984051e-001 -2.705397e-003 -1.718464e-004 2.264092e-004 -2.042572e-004 -3.163953e-004 9.986907e-001 -3.554058e-003
45298500 8.911016e-001 -3.649352e-001 7.265552e-004 4.409354e-004 -3.858302e-004 7.802391e-005 9.421228e-001 -2.580812e-001
90297000 6.382346e-001 -5.967179e-001 -1.436051e-004 -3.957696e-004 -3.338783e-004 6.135723e-004 8.205035e-001 -4.722393e-001
135295500 3.828412e-001 -6.697404e-001 2.307546e-004 -9.765626e-005 -8.643115e-005 4.493287e-005 6.498117e-001 -6.276037e-001
180294000 1.560182e-001 -6.455697e-001 -2.448335e-004 1.318902e-004 3.413150e-004 5.843956e-005 4.559814e-001 -7.204430e-001
225292500 1.114358e-002 -5.848709e-001 -4.872622e-005 3.279686e-004 -2.523210e-004 -3.053701e-004 2.650906e-001 -7.517241e-001
270291000 -1.083393e-001 -4.914870e-001 -5.510409e-005 -4.562917e-004 -5.981894e-005 1.322088e-004 9.261026e-002 -7.341248e-001
315289500 -1.701814e-001 -4.226711e-001 -2.606736e-004 4.994311e-004 -1.856645e-004 -2.255946e-004 -5.378576e-002 -6.791487e-001
360288000 -2.135644e-001 -3.247859e-001 -1.309863e-004 5.095431e-004 -1.700013e-004 -3.121248e-004 -1.679863e-001 -6.038627e-001
405286500 -2.447933e-001 -2.667856e-001 3.561215e-005 -5.390443e-004 -4.775070e-004 -3.482540e-004 -2.534020e-001 -5.191973e-001
450285000 -2.398429e-001 -1.889886e-001 -4.356097e-004 1.145602e-004 1.320397e-003 9.908610e-005 -3.125014e-001 -4.244686e-001
495283500 -2.613667e-001 -1.385181e-001 3.761748e-004 1.478748e-004 1.857929e-004 -5.507748e-004 -3.490670e-001 -3.417795e-001
540282000 -2.319717e-001 -9.006526e-002 4.847821e-004 -1.201977e-004 2.884779e-004 5.920617e-004 -3.657596e-001 -2.547980e-001
585280500 -2.384743e-001 -3.699703e-002 6.977684e-004 -2.411486e-004 3.284269e-004 -1.619862e-004 -3.705635e-001 -1.831739e-001
630279000 -2.075982e-001 -1.739035e-002 5.947578e-004 -6.223717e-004 2.088991e-004 2.572316e-004 -3.615709e-001 -1.137252e-001
675277500 -1.933806e-001 3.673382e-002 8.791914e-004 1.503661e-004 3.696250e-004 8.503968e-006 -3.479380e-001 -5.499119e-002
720276000 -1.750202e-001 3.659276e-002 5.654491e-004 -6.991961e-004 6.103344e-004 -4.950612e-004 -3.237045e-001 -5.499036e-003
765274500 -1.409791e-001 7.877423e-002 4.894782e-004 -1.236335e-004 -1.191620e-004 -2.263980e-004 -2.989248e-001 4.043355e-002
810273000 -1.365922e-001 7.708794e-002 4.184166e-004 -6.258771e-004 3.970042e-004 -1.726690e-004 -2.704669e-001 7.279026e-002
855271500 -8.653537e-002 9.723312e-002 4.660890e-004 -4.207722e-004 8.527626e-004 -5.373610e-004 -2.392897e-001 1.016897e-001
900270000 -9.175391e-002 1.035151e-001 6.127408e-004 -5.121899e-004 -7.049800e-005 -2.840050e-004 -2.094276e-001 1.227514e-001
945268500 -4.106776e-002 9.648927e-002 6.321138e-004 -4.992241e-004 4.125591e-005 -3.028150e-004 -1.774262e-001 1.396483e-001
990267000 -4.229463e-002 1.150212e-001 2.074263e-004 -8.461000e-005 3.962124e-005 -4.758706e-004 -1.493907e-001 1.516389e-001
1035265500 -9.635427e-003 8.432693e-002 2.970014e-004 -5.908083e-004 -2.715703e-005 -7.193477e-005 -1.179607e-001 1.591545e-001
1080264000 7.742376e-003 1.084660e-001 -3.824579e-004 2.087867e-004 7.528189e-005 2.181557e-004 -9.437286e-002 1.627155e-001
1125262500 1.413316e-002 7.029519e-002 -2.524301e-004 -2.266794e-004 -3.903995e-004 -2.752351e-004 -6.540834e-002 1.619776e-001
1170261000 4.789819e-002 8.382558e-002 2.437658e-004 -1.542218e-004 4.242297e-004 -8.551932e-004 -4.324280e-002 1.629426e-001
1215259500 3.029569e-002 5.636923e-002 2.460760e-004 -4.606548e-004 1.305169e-004 -8.385890e-004 -1.976898e-002 1.569057e-001
1260258000 7.371655e-002 4.618318e-002 5.723860e-004 -9.900128e-004 -6.395179e-004 -2.943115e-004 1.649264e-003 1.528626e-001
1305256500 4.904598e-002 4.231511e-002 -3.666210e-005 -1.704777e-004 -5.593826e-004 -1.464047e-004 1.967673e-002 1.431863e-001
1350255000 8.056780e-002 7.074952e-003 -6.853244e-004 -1.008924e-004 -4.182579e-004 -3.178582e-004 3.849041e-002 1.353759e-001
1395253500 6.345337e-002 2.325207e-002 -1.824531e-004 -9.501007e-004 -7.267772e-005 3.210720e-004 5.272209e-002 1.238187e-001
1440252000 7.076348e-002 -2.826773e-002 3.906781e-004 -3.972188e-005 -7.624878e-004 -9.797182e-004 7.021865e-002 1.111310e-001
1485250500 7.557692e-002 -4.514751e-003 -7.186929e-004 -2.447747e-004 -1.024617e-004 -8.898764e-004 7.812558e-002 9.987006e-002
1530249000 5.304017e-002 -4.964855e-002 -2.462856e-004 -1.905210e-004 -5.808286e-004 -1.412540e-004 9.318050e-002 8.250911e-002
1575247500 7.725910e-002 -3.969352e-002 -9.672220e-004 -2.101454e-004 -3.132163e-004 4.710457e-004 9.958576e-002 7.119771e-002
1620246000 3.163102e-002 -5.976456e-002 -7.681331e-004 1.885038e-004 -3.556476e-004 -6.372200e-004 1.074922e-001 5.110110e-002
1665244500 6.187944e-002 -7.568748e-002 -7.213046e-004 -5.562632e-005 -3.390254e-004 -1.282998e-005 1.141969e-001 3.976469e-002
1710243000 1.657158e-002 -6.385845e-002 -1.007164e-003 -7.489834e-005 -7.023719e-004 -3.029893e-004 1.154702e-001 1.972029e-002
1755241500 3.206437e-002 -1.020108e-001 -6.522297e-004 4.674400e-004 -1.259886e-003 3.453201e-004 1.202732e-001 4.422839e-003
1800240000 7.232537e-003 -6.793466e-002 -5.412651e-004 4.970825e-005 -5.136479e-004 6.411789e-004 1.142241e-001 -1.293638e-002
1845238500 -6.865983e-003 -1.114749e-001 -9.440154e-004 -4.429265e-004 -7.390575e-004 2.614445e-004 1.175692e-001 -3.004320e-002
1890237000 -1.376812e-003 -7.602768e-002 6.259590e-004 8.287954e-004 -7.625983e-004 9.593720e-005 1.070978e-001 -4.325635e-002
1935235500 -4.508620e-002 -1.057823e-001 -5.689556e-004 9.210281e-004 -6.890816e-004 9.487417e-005 1.059268e-001 -6.292090e-002
1980234000 -1.840625e-002 -8.527654e-002 -4.603106e-004 1.512480e-004 -8.634842e-005 1.409860e-004 9.483939e-002 -7.221077e-002
2025232500 -7.527037e-002 -8.398290e-002 5.204825e-004 8.258311e-004 -1.106242e-003 1.319761e-004 8.549162e-002 -9.106427e-002
2070231000 -4.339676e-002 -9.490736e-002 2.653628e-004 4.273030e-004 -8.382453e-005 8.095749e-004 7.593933e-002 -9.770887e-002
2115229500 -8.776189e-002 -5.760192e-002 3.458898e-004 1.674460e-003 -1.285704e-004 1.515778e-004 5.739567e-002 -1.128340e-001
2160228000 -7.590706e-002 -9.125153e-002 -2.916813e-004 8.711939e-004 -8.990413e-005 8.538839e-004 4.895448e-002 -1.179688e-001
2205226500 -8.876787e-002 -3.494171e-002 1.647465e-004 8.718283e-004 -2.163429e-004 6.055487e-004 2.799557e-002 -1.261217e-001
2250225000 -1.093232e-001 -6.855384e-002 1.755117e-004 8.013130e-004 -9.808692e-004 3.353834e-004 1.812045e-002 -1.313928e-001
2295223500 -8.547718e-002 -2.156926e-002 -3.332146e-004 6.874482e-004 -3.328912e-004 9.191653e-004 -4.643102e-003 -1.303730e-001
2340222000 -1.311439e-001 -3.196930e-002 9.543531e-004 1.793693e-003 4.053203e-004 4.774796e-004 -1.718419e-002 -1.357545e-001
2385220500 -8.720791e-002 -1.502708e-002 2.730323e-005 1.113677e-003 7.783136e-004 -1.346168e-004 -3.614611e-002 -1.274790e-001
2430219000 -1.326609e-001 8.955176e-003 -2.352661e-005 9.509115e-004 5.020300e-004 4.658512e-004 -5.311206e-002 -1.327019e-001
2475217500 -9.476510e-002 -4.443538e-003 -2.352538e-004 9.339150e-004 4.749757e-004 1.045254e-003 -6.482697e-002 -1.154128e-001
2520216000 -1.183482e-001 4.515697e-002 -1.955489e-004 1.287990e-003 4.749160e-004 1.116287e-003 -8.744708e-002 -1.145152e-001
2565214500 -1.050764e-001 1.377438e-002 -1.213129e-004 -3.712416e-004 4.221759e-004 -2.927720e-004 -9.234777e-002 -1.014236e-001
2610213000 -9.587146e-002 6.864887e-002 8.165375e-004 6.775326e-004 8.110655e-004 7.830546e-004 -1.162260e-001 -8.983954e-002
2655211500 -1.093201e-001 4.014691e-002 4.387156e-004 -1.791249e-004 8.894714e-004 -3.643909e-005 -1.169444e-001 -8.034795e-002
2700210000 -6.847768e-002 7.810713e-002 5.305645e-004 5.526341e-004 7.855590e-004 -1.329198e-004 -1.339514e-001 -5.620227e-002
2745208500 -1.015860e-001 7.342907e-002 6.445724e-004 -2.889133e-004 8.519324e-004 4.863726e-004 -1.368343e-001 -5.090074e-002
2790207000 -4.938432e-002 8.117976e-002 5.781420e-004 -2.858670e-004 1.011390e-003 2.609061e-004 -1.413700e-001 -2.032041e-002
2835205500 -7.872964e-002 1.044059e-001 1.217585e-003 -5.393994e-004 3.992834e-004 2.740053e-004 -1.502310e-001 -1.272934e-002
2880204000 -3.594039e-002 7.989176e-002 1.117113e-003 -8.810192e-004 7.698414e-004 -5.587921e-005 -1.410502e-001 1.308323e-002
2925202500 -4.353989e-002 1.240001e-001 7.646338e-004 -1.263624e-003 6.991305e-004 -1.564842e-004 -1.511905e-001 2.619328e-002
2970201000 -2.659215e-002 8.393804e-002 1.911363e-003 -2.537573e-004 7.457299e-004 -4.933116e-004 -1.344180e-001 4.487464e-002
3015199500 -3.660078e-003 1.263405e-001 -4.879556e-004 -2.774249e-004 5.502004e-004 -3.056562e-004 -1.406336e-001 6.871177e-002
3060198000 -1.806034e-002 9.141435e-002 1.347668e-003 1.074026e-004 9.222282e-004 3.262984e-004 -1.231114e-001 7.540592e-002
3105196500 3.142722e-002 1.128975e-001 -6.922900e-004 -5.494070e-004 2.089090e-003 1.408945e-003 -1.135072e-001 1.037806e-001
3150195000 -1.476818e-003 1.055274e-001 -3.144909e-004 -4.674550e-004 4.305408e-004 1.774930e-004 -1.025656e-001 1.046246e-001
3195193500 5.698229e-002 9.011042e-002 -9.732649e-004 -7.433138e-004 1.480552e-003 -1.467659e-003 -8.065739e-002 1.283512e-001
3240192000 2.877744e-002 1.119450e-001 1.031778e-003 -6.235808e-004 8.044778e-004 7.575853e-005 -7.340103e-002 1.282352e-001
3285190500 6.670015e-002 6.640992e-002 -7.480813e-004 -1.297805e-003 -1.043355e-003 -7.555725e-004 -4.200584e-002 1.439403e-001
3330189000 6.363478e-002 1.032716e-001 1.734952e-003 7.813376e-004 4.315950e-004 -1.019451e-003 -3.727866e-002 1.478371e-001
3375187500 6.923939e-002 5.204786e-002 -9.799001e-004 -1.476964e-003 -6.962300e-005 9.232846e-004 -2.053452e-003 1.497591e-001
3420186000 9.796961e-002 8.185979e-002 -4.640152e-004 -5.506389e-004 -1.533327e-003 -1.007610e-003 2.377180e-003 1.580233e-001
3465184500 7.020357e-002 4.275967e-002 -2.093448e-004 -8.121171e-004 1.136899e-003 3.224365e-004 3.139000e-002 1.439728e-001
3510183000 1.167060e-001 4.988088e-002 -1.712777e-004 1.416908e-003 -1.023369e-004 -1.644047e-003 4.758395e-002 1.536830e-001
3555181500 7.468812e-002 3.752604e-002 1.102087e-003 -2.004914e-003 -1.738260e-003 -2.018913e-004 6.467628e-002 1.311421e-001
3600180000 1.211851e-001 1.315436e-002 -1.299570e-003 -1.301009e-003 -6.626141e-004 -9.065910e-004 9.007438e-002 1.345464e-001
3645178500 8.624352e-002 2.968513e-002 -7.278670e-004 -8.372215e-004 -2.940656e-004 1.307430e-004 9.196956e-002 1.083628e-001
3690177000 1.099165e-001 -2.406569e-002 7.589496e-004 -1.534046e-003 -2.211905e-004 -1.997168e-003 1.193140e-001 1.057114e-001
3735175500 1.040117e-001 1.467194e-002 -9.041855e-004 -5.720945e-004 7.942246e-005 -3.886848e-005 1.173697e-001 8.430176e-002
3780174000 9.117457e-002 -3.917564e-002 -1.998534e-003 -2.584371e-003 -6.648253e-004 -5.333867e-004 1.420923e-001 6.545586e-002
3825172500 1.157008e-001 -1.586442e-002 1.416009e-004 8.757812e-004 -8.566538e-004 -9.950442e-004 1.345956e-001 5.719999e-002
3870171000 7.032427e-002 -4.936485e-002 -8.904912e-004 -1.690996e-003 -1.426388e-003 -1.461655e-003 1.523184e-001 2.474482e-002
3915169500 1.107587e-001 -4.538446e-002 -1.178961e-003 -1.522805e-003 -9.863073e-004 7.940445e-004 1.471017e-001 1.919071e-002
3960168000 5.721371e-002 -4.903259e-002 -1.430923e-003 -6.689192e-004 -2.496890e-003 -6.988891e-004 1.446421e-001 -1.326403e-002
4005166500 9.325116e-002 -7.752645e-002 -2.000250e-003 7.133299e-004 -7.315114e-004 -1.294387e-005 1.487865e-001 -1.786805e-002
4050165000 5.460612e-002 -4.658970e-002 3.244850e-004 -2.032555e-004 -8.440890e-004 -1.271662e-003 1.337597e-001 -4.881284e-002
4095163500 6.311875e-002 -1.002441e-001 -1.558865e-003 -6.229617e-004 6.616978e-004 1.864809e-003 1.414112e-001 -5.369882e-002
4140162000 5.554693e-002 -5.636786e-002 -1.000324e-003 -9.278651e-004 -1.411385e-003 1.052730e-003 1.080381e-001 -7.143774e-002
4185160500 2.583594e-002 -1.038942e-001 -1.625120e-003 7.252983e-004 -3.108131e-004 8.454365e-004 1.160109e-001 -8.837298e-002
4230159000 5.458706e-002 -7.403238e-002 -6.328173e-004 1.696094e-003 -2.590808e-004 -4.712704e-004 8.433525e-002 -8.804326e-002
4275157500 -1.310770e-003 -8.913550e-002 -1.919059e-003 -1.977381e-004 9.192693e-004 3.339127e-003 8.724766e-002 -1.129000e-001
4320156000 3.814649e-002 -9.200653e-002 -5.547060e-004 9.526177e-004 6.597597e-004 7.041532e-004 6.291733e-002 -9.708032e-002
4365154500 -1.703085e-002 -6.878150e-002 -2.419630e-003 1.279871e-003 9.813458e-005 5.288384e-004 4.887033e-002 -1.242648e-001
4410153000 9.705340e-003 -1.069339e-001 5.020041e-005 2.279170e-003 -1.043973e-003 5.020453e-004 3.909458e-002 -1.041143e-001
4455151500 -1.892699e-002 -4.989230e-002 1.510047e-003 1.434384e-003 4.181530e-004 2.194993e-003 9.292051e-003 -1.210689e-001
4500150000 -2.316669e-002 -1.006780e-001 -4.146517e-004 2.148952e-003 -6.368904e-004 -1.473929e-004 1.412461e-002 -1.038485e-001
4545148500 -1.754889e-002 -5.041648e-002 -1.282649e-003 3.130904e-003 8.847614e-004 -6.487882e-004 -2.079751e-002 -1.048682e-001
4590147000 -5.827151e-002 -8.354899e-002 -7.114198e-004 7.055560e-004 1.131280e-003 9.484116e-004 -5.966435e-003 -1.051765e-001
4635145500 -1.655223e-002 -5.172734e-002 5.675143e-004 1.015862e-003 2.165262e-003 2.711859e-003 -3.899170e-002 -8.094769e-002
4680144000 -7.510033e-002 -5.321758e-002 1.889243e-004 1.597938e-004 2.019593e-003 1.217220e-003 -3.146443e-002 -9.740965e-002
4725142500 -3.008019e-002 -5.489344e-002 -2.015406e-003 1.084271e-003 4.489193e-005 1.242009e-003 -5.132432e-002 -5.700834e-002
4770141000 -6.992937e-002 -1.851442e-002 2.686730e-005 3.388113e-004 9.288560e-004 -5.358530e-004 -6.423186e-002 -8.210080e-002
4815139500 -5.140765e-002 -5.654446e-002 8.541774e-004 -6.927170e-004 2.362302e-003 1.008862e-003 -5.111904e-002 -4.034859e-002
4860138000 -5.633869e-002 6.241796e-003 3.471829e-004 7.164063e-004 1.102506e-003 1.114780e-003 -7.731576e-002 -5.345979e-002
4905136500 -7.011433e-002 -3.570513e-002 -1.075695e-003 4.355053e-004 6.832668e-004 -1.536535e-005 -4.798943e-002 -3.383793e-002
4950135000 -4.532497e-002 1.489306e-002 6.044146e-004 1.364446e-003 2.633199e-003 -4.177939e-004 -7.814714e-002 -1.798634e-002
4995133500 -8.300113e-002 -6.239434e-003 -7.273754e-004 1.406738e-003 1.236081e-003 4.880508e-004 -5.188454e-002 -2.433077e-002
5040132000 -3.265749e-002 1.677199e-002 1.011234e-003 2.141705e-003 2.247622e-003 6.220598e-004 -7.235628e-002 1.010249e-002
5085130500 -8.311270e-002 3.207792e-002 5.492594e-004 2.325024e-003 1.061839e-003 -1.092141e-004 -6.019863e-002 -1.742300e-002
5130129000 -3.786382e-002 1.200585e-002 -1.118227e-003 -2.284659e-003 9.321041e-004 -9.883798e-004 -5.521976e-002 2.819070e-002
5175127500 -6.197228e-002 6.308834e-002 2.215717e-003 1.479063e-003 1.286287e-003 2.008870e-003 -7.294707e-002 1.473247e-003
5220126000 -4.465126e-002 1.892311e-002 9.110557e-004 5.074001e-004 2.347050e-003 -1.816289e-003 -3.806452e-002 3.480300e-002
5265124500 -3.403571e-002 7.665468e-002 2.330315e-003 7.104737e-004 7.061925e-004 1.989570e-003 -6.949814e-002 2.910203e-002
5310123000 -5.185299e-002 3.453023e-002 -2.281260e-004 1.025237e-003 -4.821825e-004 -4.583356e-004 -3.127389e-002 3.485761e-002
5355121500 -4.323354e-003 7.353492e-002 1.784676e-003 -2.447289e-003 9.558024e-004 -8.002400e-004 -6.136147e-002 5.775484e-002
5400120000 -5.246834e-002 6.448615e-002 1.922270e-003 4.572902e-004 -6.177296e-005 4.716925e-004 -2.656662e-002 3.675787e-002
5445118500 9.007839e-003 5.923586e-002 4.561896e-004 3.008913e-004 2.930288e-003 1.676397e-003 -3.496052e-002 7.476273e-002
5490117000 -3.380175e-002 9.379284e-002 7.807435e-004 -1.936737e-003 1.169070e-003 -1.317177e-003 -3.133406e-002 4.097297e-002
5535115500 1.244223e-002 4.625193e-002 3.390188e-004 4.835640e-005 2.820842e-003 1.751106e-003 -1.005578e-002 8.342829e-002
5580114000 5.227956e-003 1.090456e-001 1.328402e-003 -8.785138e-004 2.543105e-003 -1.311037e-003 -3.443057e-002 6.066495e-002
5625112500 -9.609439e-005 5.210232e-002 2.020435e-005 -1.962575e-003 -7.038705e-004 -2.446926e-003 1.133481e-002 8.348351e-002
5670111000 4.244397e-002 1.030634e-001 2.699893e-004 -1.564772e-003 5.785615e-004 -1.209957e-003 -2.134407e-002 7.951912e-002
5715109500 -5.712836e-003 6.704818e-002 1.559991e-003 1.741352e-003 -3.344135e-003 -1.130377e-003 2.565651e-002 7.343388e-002
5760108000 6.507614e-002 7.844789e-002 2.024020e-003 -1.209356e-003 -1.139497e-003 -6.092330e-004 -5.818803e-003 1.022829e-001
5805106500 1.173913e-002 9.086428e-002 1.085849e-004 2.188956e-003 7.374074e-004 -2.232364e-004 2.800486e-002 6.498114e-002
5850105000 6.944137e-002 4.900045e-002 5.681652e-004 -1.061159e-003 9.215897e-004 -9.001012e-004 3.290121e-002 1.128424e-001
5895103500 4.221231e-002 1.034366e-001 -6.642239e-004 -6.340097e-004 1.695639e-004 -4.279434e-004 3.095749e-002 6.488936e-002
5940102000 5.444882e-002 3.995404e-002 4.476025e-004 -1.375653e-003 -5.541207e-004 -1.278652e-003 6.713038e-002 1.051259e-001
5985100500 8.105101e-002 9.549890e-002 -3.180635e-003 1.529143e-003 -1.208969e-003 2.026129e-004 3.488276e-002 8.447835e-002
6030099000 4.463405e-002 4.924840e-002 -1.066500e-003 6.560743e-004 1.212260e-003 -4.826306e-004 8.967680e-002 8.110551e-002
6075097500 1.044013e-001 6.870905e-002 -3.625241e-004 -1.910875e-003 1.228973e-004 1.494990e-003 5.337553e-002 9.958970e-002
6120096000 4.769126e-002 6.634197e-002 -9.520081e-004 -1.432533e-003 -3.075619e-004 2.049362e-003 9.427018e-002 6.048831e-002
6165094500 1.076717e-001 3.335204e-002 -3.543310e-004 1.510101e-003 -2.039330e-003 1.005462e-004 8.848292e-002 1.016756e-001
6210093000 6.905667e-002 7.585250e-002 -8.402103e-004 -2.059692e-003 -2.429269e-003 2.006094e-003 8.882006e-002 4.498457e-002
6255091500 9.052800e-002 8.402605e-003 4.291554e-005 -9.882952e-004 2.312945e-004 -1.640624e-004 1.196068e-001 8.506307e-002
6300090000 1.087221e-001 6.894074e-002 4.940050e-004 -2.496485e-003 -2.430374e-003 1.281591e-004 8.860791e-002 4.693234e-002
6345088500 6.995147e-002 1.278281e-002 -2.599885e-003 -2.738899e-003 3.574099e-004 -1.485336e-003 1.377067e-001 5.477253e-002
6390087000 1.262389e-001 3.601976e-002 8.363152e-004 1.050641e-003 2.227215e-004 -3.145227e-003 9.736484e-002 5.439494e-002
6435085500 6.880361e-002 2.873434e-002 5.421865e-004 7.948172e-004 -1.238661e-004 9.103322e-004 1.385461e-001 2.382407e-002
6480084000 1.215546e-001 7.780669e-004 -9.115955e-004 -4.857491e-004 1.210199e-003 1.834112e-003 1.208936e-001 5.128377e-002
6525082500 9.058118e-002 3.475971e-002 -1.211143e-003 -4.510015e-004 -3.252793e-003 -6.396318e-005 1.283230e-001 5.685815e-003
6570081000 1.023213e-001 -1.818677e-002 -8.343322e-004 -7.071432e-004 -1.756527e-003 1.435171e-004 1.430171e-001 3.331516e-002
6615079500 1.110185e-001 2.591525e-002 -4.674190e-004 1.075542e-004 -1.662042e-003 -8.188066e-004 1.191009e-001 -6.700885e-003
6660078000 8.384413e-002 -1.892161e-002 -3.059819e-004 3.672398e-004 -2.326558e-003 1.922291e-003 1.481365e-001 5.871301e-003
6705076500 1.240547e-001 -1.657760e-004 -1.345431e-003 9.734084e-004 1.127329e-004 7.000723e-004 1.218033e-001 -8.802536e-003
6750075000 7.856038e-002 -8.576349e-003 1.389864e-003 1.599425e-003 -1.062777e-003 2.159867e-003 1.479165e-001 -2.065941e-002
6795073500 1.165353e-001 -2.902016e-002 -2.362575e-003 1.378451e-004 -7.858000e-005 1.492966e-003 1.243937e-001 -1.587757e-002
6840072000 8.638558e-002 -5.062062e-003 1.081772e-004 1.700837e-003 -4.223969e-004 2.573894e-003 1.441915e-001 -4.294048e-002
6885070500 1.004293e-001 -4.949188e-002 1.009292e-003 2.685326e-003 1.708124e-003 2.948795e-003 1.295261e-001 -2.924752e-002
