!Agilent Technologies,E8358A,US40210021,A.06.04.30
!Agilent E8358A: A.06.04.30
!Date: Saturday, April 14, 2018 14:30:13
!Correction: S11(Full 2 Port(1,2)) S21(Full 2 Port(1,2)) S12(Full 2 Port(1,2)) S22(Full 2 Port(1,2)) 
!S2P File: Measurements: S11, S21, S12, S22:
# Hz S  RI   R 50
300000 -5.487353e-002 2.737951e-002 5.109730e-002 -3.300747e-002 5.090564e-002 -3.294858e-002 -5.006772e-002 2.823394e-002
45298500 -2.356604e-002 7.950780e-003 2.276892e-002 -1.895111e-003 2.268775e-002 -1.987016e-003 -2.092464e-002 1.662121e-003
90297000 -2.230099e-002 1.861515e-002 2.329447e-002 -7.990600e-003 2.378884e-002 -8.062514e-003 -2.280889e-002 8.852850e-003
135295500 -1.494132e-002 2.502504e-002 2.118172e-002 -1.350416e-002 2.156077e-002 -1.340090e-002 -1.933953e-002 1.519230e-002
180294000 -4.590192e-003 3.497001e-002 1.725664e-002 -1.783648e-002 1.801158e-002 -1.841507e-002 -1.711188e-002 1.830789e-002
225292500 1.497932e-003 3.323144e-002 1.285185e-002 -2.154587e-002 1.266873e-002 -2.102589e-002 -1.218328e-002 2.035007e-002
270291000 1.781072e-002 3.692861e-002 8.028351e-003 -2.280193e-002 8.615186e-003 -2.285133e-002 -6.916655e-003 2.370754e-002
315289500 1.948021e-002 3.408404e-002 3.340076e-003 -2.414427e-002 3.477804e-003 -2.372193e-002 -2.634480e-003 2.461676e-002
360288000 3.911186e-002 2.331422e-002 -1.306184e-003 -2.300874e-002 -2.304594e-003 -2.264761e-002 2.310786e-003 2.386118e-002
405286500 3.664467e-002 2.780310e-002 -5.947991e-003 -2.146460e-002 -6.453949e-003 -2.152075e-002 7.359624e-003 2.354975e-002
450285000 4.740437e-002 1.599988e-003 -1.019851e-002 -1.944833e-002 -9.598974e-003 -1.945269e-002 1.127883e-002 2.184418e-002
495283500 5.222369e-002 1.383317e-002 -1.325998e-002 -1.656273e-002 -1.282247e-002 -1.714681e-002 1.519005e-002 1.946023e-002
540282000 4.151211e-002 -1.815630e-002 -1.605193e-002 -1.365325e-002 -1.597310e-002 -1.335985e-002 1.865622e-002 1.590633e-002
585280500 6.297071e-002 -1.097774e-002 -1.767046e-002 -1.014660e-002 -1.740663e-002 -1.047547e-002 2.165122e-002 1.362439e-002
630279000 2.848539e-002 -2.905628e-002 -1.859783e-002 -6.435130e-003 -1.900109e-002 -6.280872e-003 2.456390e-002 9.742210e-003
675277500 5.964089e-002 -4.153819e-002 -1.906957e-002 -2.561027e-003 -1.873665e-002 -2.577707e-003 2.461088e-002 5.513850e-003
720276000 1.518434e-002 -2.628996e-002 -1.853744e-002 -1.350934e-004 -1.882412e-002 4.773166e-004 2.630916e-002 1.408885e-003
765274500 3.705055e-002 -6.934187e-002 -1.823365e-002 3.227023e-003 -1.810869e-002 3.390276e-003 2.602492e-002 -2.000525e-003
810273000 1.522175e-002 -2.008767e-002 -1.661262e-002 6.258194e-003 -1.601240e-002 6.031104e-003 2.656517e-002 -6.525036e-003
855271500 -4.835377e-003 -8.271928e-002 -1.507762e-002 9.115694e-003 -1.557302e-002 9.310496e-003 2.505643e-002 -1.068348e-002
900270000 2.643593e-002 -2.227734e-002 -1.270145e-002 1.126000e-002 -1.264120e-002 1.139816e-002 2.450636e-002 -1.498376e-002
945268500 -4.970820e-002 -6.284285e-002 -1.089239e-002 1.279641e-002 -1.027230e-002 1.346142e-002 2.173577e-002 -1.776220e-002
990267000 3.453076e-002 -4.518602e-002 -8.185240e-003 1.415675e-002 -8.181979e-003 1.409426e-002 1.942005e-002 -2.122941e-002
1035265500 -7.264801e-002 -8.467246e-003 -4.596732e-003 1.443308e-002 -5.865132e-003 1.553957e-002 1.685715e-002 -2.377717e-002
1080264000 1.428246e-002 -8.453958e-002 -1.059330e-003 1.548160e-002 -2.347535e-003 1.495634e-002 1.418491e-002 -2.680919e-002
1125262500 -3.510656e-002 5.308283e-002 5.755763e-004 1.418334e-002 1.221908e-004 1.559092e-002 1.126404e-002 -2.839769e-002
1170261000 -5.522348e-002 -9.843776e-002 2.957288e-003 1.509841e-002 2.823559e-003 1.508035e-002 6.700148e-003 -3.194650e-002
1215259500 5.373549e-002 5.303159e-002 4.815188e-003 1.304153e-002 4.693580e-003 1.341293e-002 3.967281e-003 -3.046359e-002
1260258000 -1.275566e-001 -2.196910e-002 7.075806e-003 1.220259e-002 6.430844e-003 1.250960e-002 -1.392669e-003 -3.264153e-002
1305256500 9.220860e-002 -5.046165e-002 8.963479e-003 1.014351e-002 7.922633e-003 1.118231e-002 -3.499420e-003 -3.217583e-002
1350255000 -7.908437e-002 1.010689e-001 1.022372e-002 9.093516e-003 1.049034e-002 9.891398e-003 -9.789261e-003 -3.129628e-002
1395253500 -6.662154e-003 -1.226193e-001 1.174064e-002 7.312590e-003 1.096363e-002 7.558967e-003 -1.126272e-002 -3.127366e-002
1440252000 5.663324e-002 1.000456e-001 1.165363e-002 5.199862e-003 1.213810e-002 6.013599e-003 -1.697847e-002 -2.832148e-002
1485250500 -9.774823e-002 -5.284023e-002 1.342610e-002 3.915397e-003 1.271863e-002 3.355792e-003 -1.955986e-002 -2.803266e-002
1530249000 1.087625e-001 8.679013e-004 1.357916e-002 1.916819e-003 1.306970e-002 1.500727e-003 -2.210715e-002 -2.405784e-002
1575247500 -7.740241e-002 4.623249e-002 1.349207e-002 -9.264511e-004 1.355003e-002 -1.168623e-003 -2.539545e-002 -2.310373e-002
1620246000 6.916083e-002 -7.907376e-002 1.324433e-002 -3.342890e-003 1.380283e-002 -2.887303e-003 -2.642515e-002 -1.744713e-002
1665244500 5.316579e-003 7.671087e-002 1.223729e-002 -5.274943e-003 1.321783e-002 -5.890207e-003 -2.997213e-002 -1.577994e-002
1710243000 2.871728e-004 -9.189866e-002 1.198146e-002 -7.247111e-003 1.173632e-002 -7.285211e-003 -2.841469e-002 -1.121054e-002
1755241500 7.309249e-002 3.348050e-002 9.864226e-003 -8.606589e-003 9.475649e-003 -9.574540e-003 -3.187746e-002 -7.423374e-003
1800240000 -3.959396e-002 -5.984073e-002 8.136086e-003 -1.152723e-002 8.993859e-003 -1.103734e-002 -3.136137e-002 -3.708425e-003
1845238500 9.167199e-002 -3.540317e-002 5.904326e-003 -1.214892e-002 5.674508e-003 -1.146520e-002 -3.125770e-002 7.587439e-004
1890237000 -3.853548e-002 -2.122509e-002 4.196919e-003 -1.303886e-002 4.073951e-003 -1.335623e-002 -3.118334e-002 2.967050e-003
1935235500 5.770509e-002 -9.663934e-002 1.963547e-003 -1.279934e-002 1.864197e-003 -1.353244e-002 -2.876795e-002 9.935768e-003
1980234000 -1.312824e-002 -6.871643e-003 -6.818630e-004 -1.254616e-002 -1.183756e-003 -1.330672e-002 -2.745056e-002 1.059300e-002
2025232500 -3.612261e-003 -1.219328e-001 -2.949696e-003 -1.335968e-002 -2.884556e-003 -1.397372e-002 -2.276418e-002 1.534924e-002
2070231000 1.027059e-002 -2.331131e-002 -5.698012e-003 -1.160876e-002 -4.726368e-003 -1.213019e-002 -2.271879e-002 1.751568e-002
2115229500 -6.131558e-002 -1.060592e-001 -6.325708e-003 -1.046256e-002 -6.499353e-003 -1.225640e-002 -1.836872e-002 2.001615e-002
2160228000 1.176011e-002 -5.701633e-002 -9.146170e-003 -9.765904e-003 -9.055899e-003 -1.006008e-002 -1.617848e-002 2.248999e-002
2205226500 -9.331278e-002 -6.722783e-002 -1.058793e-002 -7.896252e-003 -1.066647e-002 -7.536028e-003 -1.135305e-002 2.337913e-002
2250225000 -1.970857e-002 -8.471429e-002 -1.167876e-002 -6.154874e-003 -1.177434e-002 -6.274940e-003 -7.987785e-003 2.605673e-002
2295223500 -9.895798e-002 -2.575015e-002 -1.196941e-002 -4.106279e-003 -1.230112e-002 -4.063411e-003 -3.711971e-003 2.736837e-002
2340222000 -6.776907e-002 -8.849676e-002 -1.283540e-002 -2.044113e-003 -1.369355e-002 -2.119490e-003 2.938524e-004 2.760683e-002
2385220500 -8.908585e-002 6.838766e-004 -1.323043e-002 5.502527e-004 -1.317701e-002 3.519966e-004 5.610531e-003 2.587089e-002
2430219000 -1.141429e-001 -5.907419e-002 -1.321049e-002 3.179453e-003 -1.352146e-002 2.657080e-003 9.030683e-003 2.653538e-002
2475217500 -7.713474e-002 1.475558e-002 -1.161675e-002 4.966507e-003 -1.187972e-002 5.253715e-003 1.418706e-002 2.413581e-002
2520216000 -1.392049e-001 -6.656753e-003 -1.074582e-002 7.376275e-003 -1.165847e-002 7.005823e-003 1.785692e-002 2.340285e-002
2565214500 -7.524481e-002 2.195129e-002 -1.017178e-002 9.225927e-003 -9.346383e-003 9.534650e-003 2.191426e-002 1.918586e-002
2610213000 -1.375120e-001 5.024824e-002 -6.449540e-003 1.086454e-002 -8.020030e-003 1.134179e-002 2.602429e-002 1.715282e-002
2655211500 -7.763780e-002 3.511133e-002 -6.257820e-003 1.177812e-002 -5.957379e-003 1.181151e-002 2.807651e-002 1.140153e-002
2700210000 -1.058514e-001 9.945493e-002 -3.612462e-003 1.241303e-002 -2.633690e-003 1.258736e-002 3.167787e-002 9.419023e-003
2745208500 -7.864752e-002 5.889962e-002 -1.093539e-003 1.307493e-002 -2.085441e-003 1.354881e-002 3.397094e-002 4.512786e-003
2790207000 -6.162982e-002 1.282590e-001 1.196302e-003 1.320531e-002 1.270427e-003 1.301224e-002 3.770168e-002 -5.471116e-006
2835205500 -6.965764e-002 8.921292e-002 2.671182e-003 1.169463e-002 3.732656e-003 1.217058e-002 3.604085e-002 -2.811628e-003
2880204000 -1.183383e-002 1.343660e-001 5.453249e-003 1.135736e-002 6.003396e-003 1.209294e-002 3.916119e-002 -1.086284e-002
2925202500 -4.255939e-002 1.216777e-001 8.256132e-003 9.537930e-003 7.780178e-003 1.110073e-002 3.712760e-002 -1.365446e-002
2970201000 2.945199e-002 1.233257e-001 9.161882e-003 8.254464e-003 9.089411e-003 9.232238e-003 3.630238e-002 -2.175636e-002
3015199500 4.863325e-003 1.420995e-001 9.670587e-003 5.215086e-003 1.105651e-002 7.370056e-003 3.694143e-002 -2.370419e-002
3060198000 6.015602e-002 1.011661e-001 1.337213e-002 3.940281e-003 1.175626e-002 4.061189e-003 3.033191e-002 -3.093206e-002
3105196500 5.974780e-002 1.400605e-001 1.257145e-002 2.483820e-003 1.278495e-002 2.200468e-003 3.266563e-002 -3.369359e-002
3150195000 8.168359e-002 8.200558e-002 1.158311e-002 1.438254e-003 1.414966e-002 1.491999e-003 2.646681e-002 -3.910390e-002
3195193500 1.145339e-001 1.108417e-001 1.234140e-002 -4.889040e-003 1.212032e-002 -7.073061e-004 2.535604e-002 -4.523566e-002
3240192000 9.578569e-002 5.604482e-002 1.239979e-002 -3.590341e-003 1.337142e-002 -4.291928e-003 1.850550e-002 -4.582980e-002
3285190500 1.494698e-001 6.043378e-002 1.133357e-002 -5.625491e-003 1.105447e-002 -5.586540e-003 1.663347e-002 -4.935059e-002
3330189000 1.130823e-001 3.001869e-002 9.125167e-003 -1.006077e-002 9.309889e-003 -7.919432e-003 9.835385e-003 -5.023677e-002
3375187500 1.616436e-001 1.173262e-003 6.327840e-003 -1.061471e-002 8.542211e-003 -9.621419e-003 3.788732e-003 -5.496341e-002
3420186000 1.244115e-001 1.006853e-003 5.874111e-003 -1.000407e-002 6.349434e-003 -1.076046e-002 -1.575029e-003 -5.240730e-002
3465184500 1.450196e-001 -5.726115e-002 3.647179e-003 -1.200273e-002 3.562714e-003 -9.262494e-003 -8.869441e-003 -5.422920e-002
3510183000 1.233559e-001 -3.630454e-002 2.081680e-003 -1.071130e-002 4.777654e-004 -1.109045e-002 -1.243698e-002 -5.244026e-002
3555181500 1.077416e-001 -1.014595e-001 -1.106357e-003 -1.134139e-002 -7.129785e-004 -1.119820e-002 -2.206864e-002 -5.077493e-002
3600180000 1.156389e-001 -7.829504e-002 -4.129244e-003 -1.032285e-002 -3.739075e-003 -1.088425e-002 -2.432987e-002 -4.996319e-002
3645178500 6.109710e-002 -1.270785e-001 -6.582647e-003 -8.949313e-003 -4.395057e-003 -8.745196e-003 -3.388286e-002 -4.701974e-002
3690177000 8.436307e-002 -1.232153e-001 -4.480442e-003 -7.844117e-003 -6.941636e-003 -8.806487e-003 -3.747329e-002 -4.450091e-002
3735175500 1.779149e-002 -1.300541e-001 -7.315147e-003 -5.149090e-003 -5.366945e-003 -4.141764e-003 -4.140167e-002 -3.561419e-002
3780174000 3.493283e-002 -1.454660e-001 -8.585098e-003 -1.993842e-003 -7.915665e-003 -4.331004e-003 -4.786283e-002 -3.286436e-002
3825172500 -1.981962e-002 -1.171300e-001 -9.868807e-003 -1.406497e-003 -6.779096e-003 -3.344751e-003 -4.933398e-002 -2.401442e-002
3870171000 -2.254359e-002 -1.550346e-001 -9.612087e-003 2.332645e-003 -7.749169e-003 -8.712065e-005 -5.308129e-002 -1.689295e-002
3915169500 -4.713316e-002 -1.027439e-001 -6.897006e-003 2.724948e-003 -5.785910e-003 2.932276e-004 -5.055856e-002 -1.458904e-002
3960168000 -7.979529e-002 -1.343258e-001 -5.558721e-003 1.410127e-003 -5.533703e-003 4.926581e-003 -5.368358e-002 -4.859709e-003
4005166500 -7.198473e-002 -8.599277e-002 -4.767145e-003 3.320207e-003 -3.806285e-003 6.786712e-003 -5.389787e-002 -2.110119e-004
4050165000 -1.194019e-001 -8.997775e-002 -5.233649e-003 5.490068e-003 -4.310628e-003 5.532274e-003 -5.053100e-002 7.663706e-003
4095163500 -9.186142e-002 -6.400712e-002 -7.853231e-005 6.123238e-003 -2.159720e-003 4.640730e-003 -4.785389e-002 1.431923e-002
4140162000 -1.372708e-001 -3.843867e-002 1.953993e-003 5.714132e-003 8.666175e-005 6.904014e-003 -4.834722e-002 1.560516e-002
4185160500 -1.106324e-001 -3.713685e-002 1.705743e-003 4.101011e-003 3.565836e-003 3.058988e-003 -4.413251e-002 2.390678e-002
4230159000 -1.315539e-001 1.153428e-002 2.734049e-003 1.156222e-003 1.899707e-003 2.376037e-003 -3.951548e-002 2.808052e-002
4275157500 -1.189891e-001 9.917826e-004 4.931998e-003 1.398729e-003 2.184296e-003 -3.349243e-004 -3.459072e-002 3.223673e-002
4320156000 -1.139573e-001 5.457836e-002 4.707423e-003 -2.923684e-003 5.135661e-003 -7.546108e-004 -3.296421e-002 3.433999e-002
4365154500 -1.190466e-001 3.846956e-002 3.245202e-003 -4.006971e-003 5.725963e-003 -6.239746e-003 -2.564448e-002 3.734557e-002
4410153000 -8.522037e-002 7.898249e-002 2.473903e-003 -7.313266e-003 5.009955e-003 -4.732395e-003 -2.748497e-002 3.794808e-002
4455151500 -1.071908e-001 8.246331e-002 -4.608136e-005 -8.255381e-003 -1.003793e-004 -8.570772e-003 -2.246234e-002 4.122548e-002
4500150000 -5.860135e-002 9.421559e-002 -2.958772e-003 -9.319576e-003 -3.810595e-003 -1.014779e-002 -2.415591e-002 4.473376e-002
4545148500 -7.647008e-002 1.166404e-001 -7.454467e-003 -1.057106e-002 -7.038640e-003 -9.966236e-003 -1.932833e-002 4.302235e-002
4590147000 -3.629926e-002 1.021445e-001 -1.190875e-002 -7.043191e-003 -1.143762e-002 -7.623523e-003 -1.281036e-002 5.085322e-002
4635145500 -3.036393e-002 1.407699e-001 -1.544161e-002 -4.074006e-003 -1.446611e-002 -5.525980e-003 -1.568135e-002 4.737509e-002
4680144000 -1.159711e-002 1.100855e-001 -1.734101e-002 -1.968961e-003 -1.764609e-002 6.837772e-004 -1.101722e-002 5.438213e-002
4725142500 1.740744e-002 1.403145e-001 -1.854450e-002 3.399973e-003 -2.022988e-002 2.431792e-003 -1.478963e-002 5.919070e-002
4770141000 2.109091e-002 1.163098e-001 -2.190677e-002 9.956264e-003 -1.937698e-002 9.611768e-003 -7.468355e-003 6.018766e-002
4815139500 6.809551e-002 1.252436e-001 -1.745108e-002 1.413677e-002 -1.600599e-002 1.473781e-002 -4.460857e-003 7.147698e-002
4860138000 5.300236e-002 1.137671e-001 -1.522974e-002 1.995903e-002 -1.437010e-002 1.976258e-002 2.504631e-003 6.823780e-002
4905136500 1.049425e-001 9.373236e-002 -1.170044e-002 2.364179e-002 -6.720974e-003 2.480116e-002 1.495372e-002 8.310851e-002
4950135000 9.174214e-002 9.822001e-002 -4.171188e-003 2.946824e-002 -3.587356e-003 2.586639e-002 1.941547e-002 7.690752e-002
4995133500 1.203767e-001 4.602166e-002 3.022913e-003 2.936110e-002 3.283392e-003 2.801902e-002 3.495038e-002 8.510324e-002
5040132000 1.230398e-001 6.132604e-002 1.387500e-002 2.991851e-002 9.838935e-003 2.730404e-002 3.899624e-002 8.327414e-002
5085130500 1.154591e-001 8.505479e-003 1.870506e-002 2.407857e-002 1.749920e-002 2.486253e-002 5.874093e-002 8.211228e-002
5130129000 1.256118e-001 1.758446e-002 2.697074e-002 1.880703e-002 2.589560e-002 2.185672e-002 6.133819e-002 7.971438e-002
5175127500 9.927905e-002 -2.406829e-002 2.925483e-002 1.665530e-002 3.003110e-002 1.421011e-002 7.608584e-002 6.707960e-002
5220126000 1.144521e-001 -2.731471e-002 3.272877e-002 6.913344e-003 3.339420e-002 8.777942e-003 8.267362e-002 6.965917e-002
5265124500 6.970285e-002 -4.020214e-002 3.473249e-002 2.060464e-003 3.270509e-002 -5.331102e-004 9.554483e-002 5.349367e-002
5310123000 8.413799e-002 -6.342735e-002 3.556860e-002 -4.999419e-003 3.575779e-002 -6.956210e-003 1.021475e-001 5.227956e-002
5355121500 4.206598e-002 -4.434189e-002 3.028461e-002 -1.512647e-002 3.228937e-002 -1.422998e-002 1.020456e-001 3.443555e-002
5400120000 3.741751e-002 -6.880539e-002 2.967679e-002 -1.989131e-002 2.965134e-002 -2.205305e-002 1.153862e-001 3.049236e-002
5445118500 1.385167e-002 -3.729533e-002 2.330782e-002 -2.549930e-002 2.427378e-002 -2.490549e-002 1.069734e-001 1.551453e-002
5490117000 -1.484586e-003 -5.363963e-002 1.961518e-002 -3.305699e-002 1.837817e-002 -2.898771e-002 1.160729e-001 1.099253e-003
5535115500 -1.158165e-003 -2.031772e-002 1.440538e-002 -3.366406e-002 1.294595e-002 -3.474335e-002 1.077999e-001 -5.877604e-003
5580114000 -3.143940e-002 -1.648265e-002 7.994496e-003 -3.593716e-002 4.566547e-003 -3.287178e-002 1.084484e-001 -1.902000e-002
5625112500 -1.105018e-002 6.380744e-003 7.061620e-005 -3.569669e-002 -1.826155e-003 -3.444013e-002 1.038551e-001 -2.112750e-002
5670111000 -3.719969e-002 2.605998e-002 -1.143386e-002 -3.454716e-002 -9.344814e-003 -3.190926e-002 1.019102e-001 -4.036672e-002
5715109500 -1.131073e-002 3.205325e-002 -1.782386e-002 -3.343087e-002 -1.653950e-002 -3.038927e-002 1.004297e-001 -3.613890e-002
5760108000 -2.129058e-002 6.680927e-002 -2.033570e-002 -2.921824e-002 -2.025035e-002 -3.113382e-002 8.541564e-002 -5.367717e-002
5805106500 3.884755e-003 6.045656e-002 -2.520822e-002 -2.699133e-002 -2.732754e-002 -2.227845e-002 8.017640e-002 -5.455818e-002
5850105000 2.043105e-002 9.511501e-002 -3.112779e-002 -1.732934e-002 -3.054807e-002 -1.845848e-002 7.083166e-002 -5.996387e-002
5895103500 2.299504e-002 8.361793e-002 -3.327223e-002 -1.407038e-002 -3.109969e-002 -1.370498e-002 6.455513e-002 -6.585178e-002
5940102000 6.327814e-002 1.066487e-001 -3.595202e-002 -6.201108e-003 -3.605624e-002 -7.782091e-003 5.351571e-002 -6.469417e-002
5985100500 6.165438e-002 9.791725e-002 -3.591476e-002 6.395284e-004 -3.296549e-002 -2.665897e-003 4.646117e-002 -6.305774e-002
6030099000 1.060960e-001 9.599504e-002 -3.323021e-002 5.280063e-003 -3.565550e-002 5.992580e-003 3.498189e-002 -6.261974e-002
6075097500 1.077741e-001 9.388982e-002 -3.326992e-002 1.316825e-002 -3.206375e-002 1.015532e-002 2.671654e-002 -6.149340e-002
6120096000 1.420141e-001 7.214114e-002 -2.921984e-002 1.677647e-002 -3.017546e-002 1.725709e-002 2.016591e-002 -5.571622e-002
6165094500 1.496539e-001 6.668311e-002 -2.275889e-002 2.409550e-002 -2.510194e-002 2.111025e-002 1.579004e-002 -5.358675e-002
6210093000 1.618470e-001 3.296284e-002 -2.254079e-002 2.651098e-002 -2.260564e-002 2.845389e-002 6.462292e-003 -5.165463e-002
6255091500 1.771357e-001 2.248246e-002 -1.544503e-002 2.989983e-002 -1.698944e-002 2.897306e-002 1.192848e-003 -4.650461e-002
6300090000 1.766681e-001 -1.262128e-002 -1.066939e-002 3.101513e-002 -1.013230e-002 3.106309e-002 -3.340161e-003 -3.673542e-002
6345088500 1.876099e-001 -2.505424e-002 -4.373699e-003 3.379490e-002 -5.751357e-003 3.302845e-002 -6.286725e-003 -2.898188e-002
6390087000 1.677377e-001 -5.509169e-002 1.713404e-003 3.293227e-002 1.199565e-003 3.479988e-002 -1.298821e-002 -1.992287e-002
6435085500 1.769716e-001 -8.429107e-002 8.218949e-003 3.375565e-002 3.592414e-003 3.424495e-002 -1.053767e-002 -1.136665e-002
6480084000 1.482034e-001 -9.609990e-002 1.316794e-002 3.117387e-002 1.463726e-002 3.084918e-002 -1.253966e-002 -3.308122e-003
6525082500 1.439065e-001 -1.335677e-001 1.671185e-002 2.753322e-002 1.960807e-002 2.832639e-002 -9.446908e-003 3.001747e-003
6570081000 1.183936e-001 -1.305870e-001 2.319846e-002 2.352419e-002 2.308384e-002 2.355947e-002 -4.643945e-003 1.559419e-002
6615079500 8.869550e-002 -1.623746e-001 2.477536e-002 1.983753e-002 2.246615e-002 2.026168e-002 -4.686218e-003 1.653721e-002
6660078000 7.689588e-002 -1.570974e-001 2.731605e-002 1.308223e-002 2.805029e-002 1.293038e-002 2.074713e-003 2.858759e-002
6705076500 3.094774e-002 -1.658192e-001 3.006916e-002 9.393525e-003 3.069620e-002 9.548452e-003 7.831085e-003 2.769256e-002
6750075000 2.488430e-002 -1.678877e-001 2.955681e-002 2.651839e-003 3.012738e-002 3.445629e-003 1.761548e-002 3.800200e-002
6795073500 -1.643498e-002 -1.513657e-001 3.084305e-002 -1.705776e-003 3.039350e-002 -3.794962e-003 1.696016e-002 3.934514e-002
6840072000 -2.863220e-002 -1.591227e-001 2.804372e-002 -6.799296e-003 2.669542e-002 -5.876086e-003 3.722449e-002 4.411856e-002
6885070500 -5.731732e-002 -1.303144e-001 2.676586e-002 -1.204461e-002 2.718186e-002 -1.049793e-002 3.476906e-002 4.603317e-002
