!Agilent Technologies,E8358A,US40210021,A.06.04.30
!Agilent E8358A: A.06.04.30
!Date: Saturday, April 14, 2018 14:29:02
!Correction: S11(Full 2 Port(1,2)) S21(Full 2 Port(1,2)) S12(Full 2 Port(1,2)) S22(Full 2 Port(1,2)) 
!S2P File: Measurements: S11, S21, S12, S22:
# Hz S  RI   R 50
300000 -4.968765e-002 2.582247e-002 1.467750e-001 3.297740e-002 1.469440e-001 3.418802e-002 -5.615904e-002 2.907011e-002
45298500 -2.117452e-002 2.700329e-003 1.730748e-001 -1.955514e-002 1.742080e-001 -2.039030e-002 -2.410155e-002 5.585452e-003
90297000 -2.192611e-002 8.996775e-003 1.692239e-001 -3.716364e-002 1.687457e-001 -3.712885e-002 -2.418281e-002 1.500247e-002
135295500 -1.987142e-002 1.207372e-002 1.645966e-001 -5.256122e-002 1.644399e-001 -5.268526e-002 -1.874433e-002 2.163600e-002
180294000 -1.415885e-002 1.972170e-002 1.591096e-001 -6.912308e-002 1.602422e-001 -6.919486e-002 -1.373176e-002 2.665491e-002
225292500 -1.359457e-002 2.002540e-002 1.508596e-001 -8.381301e-002 1.521849e-001 -8.485924e-002 -6.064781e-003 2.837906e-002
270291000 -3.801805e-003 2.353783e-002 1.430256e-001 -9.963465e-002 1.427493e-001 -1.001616e-001 1.331834e-003 3.131790e-002
315289500 -5.728516e-003 2.523737e-002 1.331098e-001 -1.150132e-001 1.337523e-001 -1.149482e-001 7.192273e-003 3.105478e-002
360288000 8.067911e-003 2.059402e-002 1.214319e-001 -1.291512e-001 1.212210e-001 -1.292287e-001 1.475342e-002 2.928056e-002
405286500 5.888686e-003 2.932921e-002 1.084158e-001 -1.413284e-001 1.082540e-001 -1.420158e-001 2.020316e-002 2.615666e-002
450285000 1.236138e-002 1.299027e-002 9.267212e-002 -1.551223e-001 9.270766e-002 -1.535001e-001 2.580388e-002 2.140121e-002
495283500 2.035479e-002 2.628513e-002 7.706027e-002 -1.628308e-001 7.593965e-002 -1.642654e-001 3.095530e-002 1.710897e-002
540282000 1.207832e-002 8.989060e-003 5.743726e-002 -1.723071e-001 5.786856e-002 -1.722094e-001 3.318814e-002 1.065818e-002
585280500 3.441583e-002 1.563169e-002 3.994223e-002 -1.786550e-001 4.002792e-002 -1.777571e-001 3.456260e-002 5.291807e-003
630279000 1.181268e-002 9.836306e-003 2.096384e-002 -1.811979e-001 1.943195e-002 -1.824606e-001 3.544964e-002 -1.857909e-004
675277500 3.957034e-002 -3.840781e-003 -1.195877e-003 -1.835051e-001 2.171876e-004 -1.847490e-001 3.416464e-002 -6.754186e-003
720276000 1.755287e-002 1.355505e-002 -1.873696e-002 -1.832385e-001 -2.146560e-002 -1.834377e-001 3.322249e-002 -1.085927e-002
765274500 3.008690e-002 -2.243712e-002 -3.918437e-002 -1.802808e-001 -4.021921e-002 -1.809156e-001 3.088833e-002 -1.468725e-002
810273000 3.188777e-002 1.118457e-002 -6.058384e-002 -1.759683e-001 -6.051293e-002 -1.753021e-001 2.855483e-002 -1.903681e-002
855271500 1.165820e-002 -2.963560e-002 -7.941844e-002 -1.681480e-001 -7.899111e-002 -1.685027e-001 2.497148e-002 -2.241639e-002
900270000 4.659546e-002 -6.280866e-003 -9.736872e-002 -1.584191e-001 -9.784422e-002 -1.585402e-001 2.190319e-002 -2.545472e-002
945268500 -3.061993e-003 -1.988023e-002 -1.140608e-001 -1.474653e-001 -1.141295e-001 -1.478630e-001 1.862082e-002 -2.619826e-002
990267000 4.618320e-002 -3.479537e-002 -1.294375e-001 -1.349044e-001 -1.298057e-001 -1.350496e-001 1.514274e-002 -2.736008e-002
1035265500 -1.828490e-003 -1.976745e-003 -1.441673e-001 -1.192506e-001 -1.441130e-001 -1.192350e-001 1.283097e-002 -2.807357e-002
1080264000 2.310006e-002 -6.079965e-002 -1.559488e-001 -1.037769e-001 -1.566048e-001 -1.045693e-001 9.687671e-003 -2.921559e-002
1125262500 1.989278e-002 5.027958e-003 -1.661256e-001 -8.613335e-002 -1.665999e-001 -8.502269e-002 8.628668e-003 -2.723221e-002
1170261000 -1.551416e-002 -6.002187e-002 -1.745781e-001 -6.752646e-002 -1.745113e-001 -6.785353e-002 5.964835e-003 -2.974240e-002
1215259500 4.016036e-002 -1.661655e-002 -1.809935e-001 -4.834759e-002 -1.807614e-001 -4.788589e-002 5.866837e-003 -2.547874e-002
1260258000 -3.860853e-002 -3.166544e-002 -1.848427e-001 -2.970036e-002 -1.868325e-001 -2.913265e-002 3.238841e-003 -2.754695e-002
1305256500 3.516955e-002 -5.395966e-002 -1.869702e-001 -9.641028e-003 -1.872816e-001 -8.776099e-003 5.298903e-003 -2.662891e-002
1350255000 -2.971338e-002 2.520935e-003 -1.877184e-001 9.965027e-003 -1.888345e-001 1.143253e-002 1.289724e-003 -2.649410e-002
1395253500 -3.240091e-003 -7.580665e-002 -1.856267e-001 3.024367e-002 -1.866407e-001 3.076059e-002 3.697282e-003 -2.770159e-002
1440252000 1.614012e-003 8.810211e-003 -1.827030e-001 5.054110e-002 -1.826563e-001 5.005584e-002 3.807283e-004 -2.868234e-002
1485250500 -4.518534e-002 -6.210607e-002 -1.768565e-001 6.858189e-002 -1.761159e-001 6.954739e-002 7.009287e-004 -3.079926e-002
1530249000 2.334108e-002 -1.467006e-002 -1.684946e-001 8.765933e-002 -1.682452e-001 8.763564e-002 -9.114651e-004 -3.294260e-002
1575247500 -6.378048e-002 -2.305392e-002 -1.597179e-001 1.080092e-001 -1.603200e-001 1.076732e-001 -1.512316e-003 -3.469981e-002
1620246000 1.423888e-002 -4.620387e-002 -1.482891e-001 1.215577e-001 -1.478643e-001 1.228286e-001 -3.539989e-003 -3.557180e-002
1665244500 -4.934550e-002 1.386636e-002 -1.337020e-001 1.398514e-001 -1.335443e-001 1.393244e-001 -7.580255e-003 -3.878547e-002
1710243000 -2.135112e-002 -6.052742e-002 -1.201940e-001 1.533915e-001 -1.202149e-001 1.528205e-001 -8.495551e-003 -3.998430e-002
1755241500 -1.740685e-002 2.233637e-002 -1.006115e-001 1.659452e-001 -1.012150e-001 1.649710e-001 -1.507871e-002 -4.046052e-002
1800240000 -5.617842e-002 -4.161233e-002 -8.299767e-002 1.782451e-001 -8.338271e-002 1.782290e-001 -1.760123e-002 -4.211268e-002
1845238500 5.067248e-003 9.162148e-003 -6.469476e-002 1.842087e-001 -6.488577e-002 1.856731e-001 -2.502009e-002 -4.058468e-002
1890237000 -6.844003e-002 -3.858704e-003 -4.277259e-002 1.940210e-001 -4.236104e-002 1.943982e-001 -2.942408e-002 -4.287639e-002
1935235500 4.325739e-003 -1.586062e-002 -2.290350e-002 1.964417e-001 -2.095560e-002 1.971700e-001 -3.431982e-002 -3.794748e-002
1980234000 -5.356116e-002 2.972376e-002 2.841287e-003 1.996041e-001 1.075032e-003 1.992706e-001 -4.040316e-002 -3.945854e-002
2025232500 -1.804334e-002 -2.632634e-002 2.112581e-002 1.993321e-001 2.082927e-002 1.991810e-001 -4.460572e-002 -3.238562e-002
2070231000 -2.334306e-002 4.463155e-002 4.620221e-002 1.940708e-001 4.493584e-002 1.959053e-001 -5.107262e-002 -3.039091e-002
2115229500 -3.908117e-002 -1.614709e-002 6.510428e-002 1.924579e-001 6.426614e-002 1.904911e-001 -5.423852e-002 -2.365015e-002
2160228000 4.295642e-003 3.675164e-002 8.651603e-002 1.818779e-001 8.717977e-002 1.822243e-001 -5.889790e-002 -1.860928e-002
2205226500 -4.762949e-002 1.091160e-002 1.077176e-001 1.738013e-001 1.060775e-001 1.721717e-001 -6.006374e-002 -1.210269e-002
2250225000 1.549883e-002 1.860230e-002 1.237628e-001 1.594069e-001 1.255279e-001 1.611526e-001 -6.345463e-002 -5.317323e-003
2295223500 -3.602471e-002 3.847088e-002 1.443307e-001 1.459014e-001 1.431517e-001 1.459762e-001 -6.437080e-002 3.600342e-003
2340222000 1.277303e-002 1.501916e-003 1.570307e-001 1.304129e-001 1.583766e-001 1.304664e-001 -6.501713e-002 1.142717e-002
2385220500 -7.556085e-003 5.307237e-002 1.731538e-001 1.103862e-001 1.723324e-001 1.109853e-001 -6.231047e-002 1.886515e-002
2430219000 -8.836020e-004 -2.173571e-003 1.839488e-001 9.451869e-002 1.850902e-001 9.297674e-002 -6.020733e-002 2.702406e-002
2475217500 2.104451e-002 4.784644e-002 1.917907e-001 7.055375e-002 1.932085e-001 7.161923e-002 -5.543764e-002 3.587377e-002
2520216000 -8.909287e-003 8.386030e-003 2.017433e-001 5.124258e-002 2.009870e-001 4.932885e-002 -5.105836e-002 4.415684e-002
2565214500 4.087810e-002 2.710300e-002 2.054876e-001 2.787469e-002 2.053227e-001 2.923991e-002 -4.558273e-002 4.883573e-002
2610213000 -6.029199e-003 2.285051e-002 2.091636e-001 4.834977e-003 2.076924e-001 3.549277e-003 -3.892569e-002 5.620369e-002
2655211500 4.531982e-002 4.297975e-003 2.073884e-001 -1.813711e-002 2.086512e-001 -1.666730e-002 -3.213942e-002 5.883337e-002
2700210000 1.402776e-002 3.188345e-002 2.046824e-001 -4.192732e-002 2.034941e-001 -4.233931e-002 -2.098593e-002 6.497409e-002
2745208500 3.742083e-002 -1.311092e-002 1.991926e-001 -6.304028e-002 2.013506e-001 -6.446507e-002 -1.344519e-002 6.734902e-002
2790207000 3.427697e-002 2.598236e-002 1.915726e-001 -8.740709e-002 1.906973e-001 -8.526646e-002 -5.356369e-006 6.850349e-002
2835205500 2.362031e-002 -2.009327e-002 1.813318e-001 -1.083499e-001 1.824178e-001 -1.071953e-001 5.694954e-003 7.137945e-002
2880204000 5.239581e-002 8.032134e-003 1.679997e-001 -1.270106e-001 1.693529e-001 -1.254706e-001 1.964834e-002 6.675503e-002
2925202500 1.676168e-002 -1.690913e-002 1.533922e-001 -1.455497e-001 1.542840e-001 -1.475320e-001 2.736522e-002 6.740835e-002
2970201000 5.680738e-002 -1.652477e-002 1.376083e-001 -1.615299e-001 1.393820e-001 -1.601656e-001 3.710201e-002 5.973379e-002
3015199500 1.860860e-002 -1.334086e-002 1.189690e-001 -1.745214e-001 1.187495e-001 -1.770767e-001 4.562938e-002 5.933004e-002
3060198000 4.784899e-002 -4.014669e-002 9.806669e-002 -1.887123e-001 9.857344e-002 -1.890205e-001 5.286097e-002 4.862362e-002
3105196500 2.245691e-002 -1.433551e-002 7.927914e-002 -1.993817e-001 7.986537e-002 -1.963852e-001 6.456081e-002 4.215416e-002
3150195000 2.775090e-002 -5.318052e-002 5.288660e-002 -2.012847e-001 5.333221e-002 -2.043363e-001 6.615408e-002 3.392280e-002
3195193500 3.000765e-002 -2.521003e-002 3.374498e-002 -2.134002e-001 3.538914e-002 -2.136093e-001 7.494704e-002 2.044040e-002
3240192000 9.868653e-003 -5.688116e-002 1.150263e-002 -2.130650e-001 6.670976e-003 -2.118638e-001 7.635237e-002 1.249611e-002
3285190500 2.840488e-002 -4.089160e-002 -1.735370e-002 -2.158613e-001 -1.538890e-002 -2.166735e-001 8.012023e-002 9.051713e-004
3330189000 -6.893284e-003 -5.652070e-002 -3.567862e-002 -2.122516e-001 -3.996953e-002 -2.074703e-001 8.066214e-002 -1.019785e-002
3375187500 2.099457e-002 -5.747712e-002 -6.395640e-002 -2.066789e-001 -6.432103e-002 -2.084308e-001 7.886849e-002 -2.052788e-002
3420186000 -1.398737e-002 -4.749632e-002 -8.129095e-002 -1.994066e-001 -8.254185e-002 -1.965384e-001 7.742101e-002 -3.300909e-002
3465184500 1.421617e-003 -7.069933e-002 -1.081037e-001 -1.845224e-001 -1.097207e-001 -1.876406e-001 7.156717e-002 -4.513401e-002
3510183000 -2.251121e-002 -4.182759e-002 -1.262741e-001 -1.789999e-001 -1.248721e-001 -1.747502e-001 6.478678e-002 -5.515576e-002
3555181500 -2.495558e-002 -7.358871e-002 -1.425835e-001 -1.581626e-001 -1.464764e-001 -1.582808e-001 5.427466e-002 -6.193476e-002
3600180000 -2.265540e-002 -3.993386e-002 -1.653308e-001 -1.481401e-001 -1.627516e-001 -1.432053e-001 4.954449e-002 -7.109924e-002
3645178500 -4.812146e-002 -6.405635e-002 -1.743130e-001 -1.240175e-001 -1.766775e-001 -1.256125e-001 3.734023e-002 -7.786255e-002
3690177000 -2.856364e-002 -4.495152e-002 -1.939782e-001 -1.067775e-001 -1.907552e-001 -1.047606e-001 2.415869e-002 -8.271114e-002
3735175500 -6.664900e-002 -4.326837e-002 -1.978258e-001 -8.463912e-002 -2.033507e-001 -8.146346e-002 1.446622e-002 -8.581388e-002
3780174000 -4.038554e-002 -4.486457e-002 -2.111774e-001 -5.918495e-002 -2.111041e-001 -5.968506e-002 -9.747728e-004 -8.748862e-002
3825172500 -6.999637e-002 -2.483394e-002 -2.160660e-001 -4.183637e-002 -2.155022e-001 -3.438355e-002 -1.190729e-002 -8.466424e-002
3870171000 -5.888673e-002 -4.374676e-002 -2.167931e-001 -1.284669e-002 -2.175152e-001 -1.289752e-002 -2.304701e-002 -7.761810e-002
3915169500 -6.764050e-002 -5.037337e-003 -2.204658e-001 9.030269e-003 -2.189532e-001 1.227321e-002 -3.158289e-002 -7.844748e-002
3960168000 -7.780802e-002 -2.879480e-002 -2.164619e-001 3.384020e-002 -2.182557e-001 3.560943e-002 -4.449860e-002 -6.867290e-002
4005166500 -6.440950e-002 6.568244e-003 -2.134827e-001 5.977255e-002 -2.101590e-001 5.917063e-002 -5.476178e-002 -6.314088e-002
4050165000 -8.681839e-002 -3.634708e-003 -2.024822e-001 8.325996e-002 -2.051645e-001 8.176742e-002 -6.011440e-002 -4.986500e-002
4095163500 -5.796482e-002 9.544829e-003 -1.961264e-001 1.061193e-001 -1.917679e-001 1.066837e-001 -6.737806e-002 -3.794277e-002
4140162000 -8.571067e-002 1.978950e-002 -1.812258e-001 1.274789e-001 -1.827456e-001 1.265106e-001 -7.389989e-002 -3.047762e-002
4185160500 -5.978185e-002 1.625956e-002 -1.646818e-001 1.462059e-001 -1.655740e-001 1.449649e-001 -7.497226e-002 -1.339418e-002
4230159000 -7.368147e-002 4.435567e-002 -1.501159e-001 1.621651e-001 -1.502884e-001 1.660318e-001 -7.697308e-002 -5.747372e-003
4275157500 -6.312373e-002 2.975539e-002 -1.305151e-001 1.801317e-001 -1.315867e-001 1.768089e-001 -7.253815e-002 1.063499e-002
4320156000 -5.997746e-002 6.297348e-002 -1.106460e-001 1.931778e-001 -1.058080e-001 1.945542e-001 -7.078727e-002 2.166282e-002
4365154500 -6.700936e-002 4.664570e-002 -8.767954e-002 2.038306e-001 -8.982891e-002 2.028226e-001 -5.993108e-002 3.101243e-002
4410153000 -4.186516e-002 7.076808e-002 -6.419976e-002 2.104792e-001 -6.437510e-002 2.079798e-001 -6.023262e-002 4.222494e-002
4455151500 -6.021676e-002 6.431314e-002 -4.106594e-002 2.209565e-001 -4.375412e-002 2.183777e-001 -4.816298e-002 4.795959e-002
4500150000 -2.869358e-002 6.895848e-002 -1.745780e-002 2.207297e-001 -1.747504e-002 2.194459e-001 -4.346321e-002 6.098741e-002
4545148500 -4.503138e-002 8.010449e-002 2.764301e-003 2.235566e-001 5.756313e-003 2.217358e-001 -3.195924e-002 6.235188e-002
4590147000 -1.892997e-002 6.857541e-002 2.692270e-002 2.136835e-001 3.059785e-002 2.182694e-001 -2.015846e-002 6.573076e-002
4635145500 -2.259606e-002 9.524608e-002 5.597665e-002 2.136151e-001 5.179342e-002 2.156775e-001 -1.159192e-002 6.800137e-002
4680144000 -1.414331e-002 7.265383e-002 7.115293e-002 2.090624e-001 7.570913e-002 2.053388e-001 -2.083084e-003 6.770957e-002
4725142500 -3.922821e-003 1.011046e-001 9.756304e-002 1.961457e-001 9.583578e-002 2.001334e-001 9.551758e-004 6.819718e-002
4770141000 -4.320065e-003 8.125637e-002 1.190231e-001 1.927053e-001 1.138792e-001 1.862134e-001 1.320650e-002 6.220024e-002
4815139500 2.153671e-002 9.997389e-002 1.324351e-001 1.692797e-001 1.361088e-001 1.770254e-001 1.772920e-002 6.654018e-002
4860138000 8.972786e-003 9.621724e-002 1.611782e-001 1.618559e-001 1.518203e-001 1.602902e-001 2.981275e-002 5.825314e-002
4905136500 4.110604e-002 9.598310e-002 1.656846e-001 1.422988e-001 1.731364e-001 1.404328e-001 3.546744e-002 6.235228e-002
4950135000 2.431969e-002 1.056708e-001 1.913039e-001 1.205699e-001 1.842867e-001 1.255191e-001 4.202117e-002 5.477194e-002
4995133500 5.782625e-002 8.172314e-002 1.943448e-001 1.127506e-001 1.961765e-001 1.008942e-001 4.915410e-002 5.202978e-002
5040132000 5.420670e-002 1.059721e-001 2.123653e-001 7.628120e-002 2.126390e-001 8.813455e-002 4.885997e-002 4.262092e-002
5085130500 6.542294e-002 8.041922e-002 2.193168e-001 6.789410e-002 2.140437e-001 5.723138e-002 5.653719e-002 4.375193e-002
5130129000 7.687313e-002 1.012096e-001 2.226177e-001 3.239780e-002 2.324946e-001 3.789672e-002 5.428105e-002 3.729975e-002
5175127500 7.968135e-002 7.040390e-002 2.343244e-001 1.371937e-002 2.248259e-001 9.507208e-003 6.205136e-002 2.671483e-002
5220126000 1.019235e-001 8.098152e-002 2.264238e-001 -1.530404e-002 2.352299e-001 -1.603775e-002 6.029213e-002 2.548226e-002
5265124500 9.147121e-002 6.628441e-002 2.349833e-001 -4.536872e-002 2.251560e-001 -3.854575e-002 6.573159e-002 1.348618e-002
5310123000 1.202706e-001 5.198853e-002 2.256547e-001 -6.278924e-002 2.269466e-001 -7.076012e-002 6.434593e-002 1.654669e-002
5355121500 1.063769e-001 5.394458e-002 2.181092e-001 -9.692277e-002 2.221186e-001 -8.806366e-002 5.778833e-002 5.778307e-003
5400120000 1.218345e-001 2.635117e-002 2.096636e-001 -1.124675e-001 2.053423e-001 -1.206158e-001 6.192473e-002 8.077620e-003
5445118500 1.191047e-001 3.518457e-002 1.937158e-001 -1.448397e-001 2.020637e-001 -1.331074e-001 5.835272e-002 2.793977e-003
5490117000 1.179348e-001 8.261762e-003 1.883139e-001 -1.587194e-001 1.733833e-001 -1.595459e-001 6.047307e-002 6.108028e-004
5535115500 1.280977e-001 1.231956e-002 1.589135e-001 -1.827961e-001 1.671008e-001 -1.865279e-001 5.174028e-002 -7.909484e-003
5580114000 1.132541e-001 -7.827532e-003 1.435329e-001 -1.998683e-001 1.389990e-001 -1.954987e-001 5.437460e-002 -7.495701e-003
5625112500 1.246926e-001 -1.145453e-002 1.169442e-001 -2.144088e-001 1.191168e-001 -2.208429e-001 4.925328e-002 -3.560735e-003
5670111000 1.057362e-001 -2.338632e-002 9.477096e-002 -2.341344e-001 9.752811e-002 -2.228020e-001 5.035884e-002 -1.504249e-002
5715109500 1.165039e-001 -3.883295e-002 6.811491e-002 -2.429683e-001 6.231213e-002 -2.417239e-001 4.381758e-002 -3.639565e-003
5760108000 9.590754e-002 -3.722985e-002 3.934299e-002 -2.533337e-001 4.373830e-002 -2.466762e-001 4.005798e-002 -1.373082e-002
5805106500 9.680689e-002 -5.713984e-002 1.547471e-002 -2.524075e-001 5.594761e-003 -2.468644e-001 4.010227e-002 -9.771283e-003
5850105000 8.704111e-002 -4.656633e-002 -1.847414e-002 -2.555988e-001 -1.543676e-002 -2.531004e-001 3.677323e-002 -9.996920e-003
5895103500 6.987785e-002 -6.702507e-002 -4.549362e-002 -2.495488e-001 -4.851451e-002 -2.445143e-001 3.721324e-002 -1.138805e-002
5940102000 7.242444e-002 -5.529212e-002 -7.737133e-002 -2.430369e-001 -7.549735e-002 -2.464001e-001 3.443480e-002 -7.268200e-003
5985100500 4.899592e-002 -6.229875e-002 -1.043411e-001 -2.331106e-001 -1.017184e-001 -2.328624e-001 3.365943e-002 -4.116392e-003
6030099000 5.870868e-002 -5.957172e-002 -1.342591e-001 -2.188480e-001 -1.331327e-001 -2.263181e-001 3.262711e-002 -2.924694e-003
6075097500 3.284460e-002 -5.350697e-002 -1.562744e-001 -2.044464e-001 -1.547566e-001 -2.097030e-001 3.337362e-002 1.887646e-003
6120096000 3.289708e-002 -6.399083e-002 -1.832566e-001 -1.893486e-001 -1.833275e-001 -1.919490e-001 3.298563e-002 6.115830e-003
6165094500 2.055708e-002 -4.424017e-002 -1.966609e-001 -1.654639e-001 -1.999096e-001 -1.721323e-001 3.627678e-002 4.423363e-003
6210093000 1.105898e-002 -5.653443e-002 -2.235108e-001 -1.402844e-001 -2.214080e-001 -1.460170e-001 3.406804e-002 5.578080e-003
6255091500 1.198341e-002 -3.841157e-002 -2.390095e-001 -1.223803e-001 -2.383251e-001 -1.222484e-001 3.767691e-002 5.946229e-003
6300090000 -1.531676e-003 -3.704062e-002 -2.483801e-001 -8.671300e-002 -2.527099e-001 -9.353432e-002 3.790967e-002 7.007439e-003
6345088500 5.054604e-003 -2.477130e-002 -2.616633e-001 -6.885630e-002 -2.592335e-001 -5.894936e-002 4.128770e-002 9.831787e-003
6390087000 -1.048610e-002 -1.563995e-002 -2.616296e-001 -2.869062e-002 -2.710595e-001 -3.085450e-002 4.081174e-002 1.180113e-002
6435085500 -4.465962e-004 -1.056422e-002 -2.726943e-001 -2.811481e-004 -2.655686e-001 1.628721e-003 4.709280e-002 1.178456e-002
6480084000 -1.110073e-002 7.182655e-003 -2.637184e-001 2.443976e-002 -2.722434e-001 3.657858e-002 4.540785e-002 1.128610e-002
6525082500 -2.841050e-003 1.636746e-003 -2.621735e-001 6.099129e-002 -2.647862e-001 6.548134e-002 4.729044e-002 7.925596e-003
6570081000 -2.855254e-003 2.661084e-002 -2.547360e-001 9.025987e-002 -2.572067e-001 9.763489e-002 5.068526e-002 1.232900e-002
6615079500 2.560327e-004 1.956953e-002 -2.399572e-001 1.160702e-001 -2.403628e-001 1.254032e-001 4.834553e-002 7.506931e-003
6660078000 1.408814e-002 3.796870e-002 -2.285514e-001 1.566131e-001 -2.284176e-001 1.540360e-001 5.328749e-002 1.006060e-002
6705076500 7.081661e-003 3.948608e-002 -2.140353e-001 1.715315e-001 -2.070116e-001 1.776664e-001 5.159918e-002 5.167692e-003
6750075000 3.193766e-002 4.518753e-002 -1.800801e-001 2.012656e-001 -1.843270e-001 2.028805e-001 5.959528e-002 1.133353e-002
6795073500 2.447115e-002 5.516194e-002 -1.720536e-001 2.249555e-001 -1.612637e-001 2.230264e-001 5.382089e-002 8.750561e-003
6840072000 4.670113e-002 4.300882e-002 -1.335046e-001 2.327595e-001 -1.334822e-001 2.423406e-001 6.411545e-002 8.591365e-003
6885070500 5.016004e-002 5.857198e-002 -1.088082e-001 2.609471e-001 -1.054770e-001 2.536957e-001 5.676033e-002 1.284670e-002
