!Agilent Technologies,E8358A,US40210021,A.06.04.30
!Agilent E8358A: A.06.04.30
!Date: Saturday, April 14, 2018 14:29:39
!Correction: S11(Full 2 Port(1,2)) S21(Full 2 Port(1,2)) S12(Full 2 Port(1,2)) S22(Full 2 Port(1,2)) 
!S2P File: Measurements: S11, S21, S12, S22:
# Hz S  RI   R 50
300000 -5.055023e-002 2.664164e-002 8.463929e-001 -3.181047e-002 8.492207e-001 -3.006960e-002 -5.145191e-002 2.858228e-002
45298500 -2.038623e-002 7.594117e-003 8.088733e-001 -1.222879e-001 8.100837e-001 -1.238669e-001 -1.941572e-002 4.619264e-003
90297000 -1.596391e-002 1.743652e-002 7.790631e-001 -2.453829e-001 7.799140e-001 -2.464113e-001 -1.869593e-002 1.325811e-002
135295500 -1.097217e-002 2.253146e-002 7.336671e-001 -3.587543e-001 7.339629e-001 -3.608024e-001 -1.465008e-002 1.901944e-002
180294000 2.058056e-004 3.187858e-002 6.696860e-001 -4.640989e-001 6.696695e-001 -4.685104e-001 -1.003487e-002 2.300772e-002
225292500 5.495701e-003 2.917115e-002 5.878342e-001 -5.608811e-001 5.908571e-001 -5.634928e-001 -1.186561e-003 2.377570e-002
270291000 2.185407e-002 3.252520e-002 4.960059e-001 -6.428807e-001 4.986892e-001 -6.441728e-001 3.837709e-003 2.606228e-002
315289500 2.099146e-002 2.576550e-002 3.963484e-001 -7.094499e-001 3.973545e-001 -7.101785e-001 1.073102e-002 2.311785e-002
360288000 4.269677e-002 1.656866e-002 2.841713e-001 -7.582045e-001 2.833794e-001 -7.603734e-001 1.380390e-002 2.233780e-002
405286500 3.326526e-002 2.058687e-002 1.670476e-001 -7.898071e-001 1.672636e-001 -7.929622e-001 2.094337e-002 1.771475e-002
450285000 4.579440e-002 -9.231878e-003 4.274383e-002 -8.034840e-001 4.942018e-002 -8.090463e-001 1.996441e-002 1.603826e-002
495283500 4.900369e-002 9.294031e-003 -7.266993e-002 -8.025653e-001 -7.597028e-002 -7.971781e-001 2.687032e-002 8.157904e-003
540282000 3.209715e-002 -2.751043e-002 -1.931882e-001 -7.753789e-001 -1.947381e-001 -7.830564e-001 2.246680e-002 7.303879e-003
585280500 5.896220e-002 -1.559180e-002 -3.102829e-001 -7.396480e-001 -3.103977e-001 -7.427010e-001 2.943924e-002 -9.496328e-004
630279000 1.450691e-002 -2.786027e-002 -4.112776e-001 -6.890940e-001 -4.138318e-001 -6.880159e-001 2.075396e-002 2.035892e-003
675277500 5.108413e-002 -4.592457e-002 -5.110270e-001 -6.098642e-001 -5.129842e-001 -6.138068e-001 2.965712e-002 -9.610068e-003
720276000 7.005878e-003 -1.844082e-002 -5.980613e-001 -5.347597e-001 -6.018444e-001 -5.321007e-001 1.683380e-002 -3.798839e-003
765274500 2.194798e-002 -6.669509e-002 -6.699308e-001 -4.325991e-001 -6.721768e-001 -4.335516e-001 3.007714e-002 -1.350492e-002
810273000 1.248878e-002 -1.239856e-002 -7.270727e-001 -3.247993e-001 -7.281448e-001 -3.253470e-001 1.218541e-002 -4.630709e-003
855271500 -1.263300e-002 -6.766219e-002 -7.648292e-001 -2.118421e-001 -7.657956e-001 -2.122947e-001 3.008723e-002 -1.849521e-002
900270000 2.291882e-002 -1.544324e-002 -7.877614e-001 -9.172389e-002 -7.893197e-001 -8.873181e-002 7.243162e-003 -2.360106e-003
945268500 -4.495985e-002 -4.816027e-002 -7.894236e-001 3.039577e-002 -7.894725e-001 3.126210e-002 3.340366e-002 -2.310801e-002
990267000 3.314849e-002 -3.109088e-002 -7.705426e-001 1.486848e-001 -7.716342e-001 1.504703e-001 6.205365e-003 -3.015010e-004
1035265500 -6.321540e-002 -2.287711e-003 -7.329996e-001 2.642623e-001 -7.341198e-001 2.675372e-001 3.897925e-002 -3.181276e-002
1080264000 2.683963e-002 -7.082939e-002 -6.783055e-001 3.692893e-001 -6.800984e-001 3.686191e-001 5.417870e-003 2.564103e-003
1125262500 -3.031203e-002 5.899247e-002 -6.036990e-001 4.624315e-001 -6.012019e-001 4.658852e-001 4.346607e-002 -5.084541e-002
1170261000 -3.726683e-002 -1.007107e-001 -5.233184e-001 5.382211e-001 -5.247719e-001 5.410464e-001 5.784993e-003 4.019264e-003
1215259500 6.957789e-002 6.193783e-002 -4.212058e-001 5.929475e-001 -4.192436e-001 5.933573e-001 3.490609e-002 -7.493173e-002
1260258000 -1.256571e-001 -3.118580e-002 -3.382751e-001 6.347052e-001 -3.385393e-001 6.390281e-001 8.354002e-003 1.087243e-002
1305256500 1.148876e-001 -6.260908e-002 -2.496774e-001 6.518413e-001 -2.466152e-001 6.533318e-001 7.384883e-003 -9.247967e-002
1350255000 -7.308407e-002 1.034234e-001 -1.696025e-001 6.830491e-001 -1.680487e-001 6.842883e-001 2.022906e-002 1.188736e-002
1395253500 -4.151890e-003 -1.438015e-001 -9.091299e-002 7.012887e-001 -9.080382e-002 7.015305e-001 -2.227165e-002 -8.642434e-002
1440252000 6.714249e-002 8.978152e-002 3.359879e-003 7.196394e-001 4.762211e-003 7.178414e-001 2.968214e-002 -8.107473e-005
1485250500 -1.040546e-001 -6.610332e-002 1.065577e-001 7.293805e-001 1.097880e-001 7.273833e-001 -3.577909e-002 -7.209057e-002
1530249000 1.101591e-001 -1.494801e-002 2.097862e-001 7.143459e-001 2.082108e-001 7.089986e-001 2.906833e-002 -1.467694e-002
1575247500 -8.810821e-002 3.482306e-002 3.304788e-001 6.861039e-001 3.303854e-001 6.861836e-001 -3.849361e-002 -6.476053e-002
1620246000 6.236366e-002 -9.396967e-002 4.171257e-001 6.317276e-001 4.141040e-001 6.282568e-001 1.765833e-002 -2.773264e-002
1665244500 -1.044069e-002 7.654360e-002 5.302261e-001 5.619518e-001 5.281324e-001 5.606506e-001 -4.708683e-002 -5.871512e-002
1710243000 -1.766584e-002 -1.048501e-001 5.962860e-001 4.855657e-001 5.957209e-001 4.861347e-001 5.210085e-003 -3.198023e-002
1755241500 6.614313e-002 4.188558e-002 6.713026e-001 3.767797e-001 6.726915e-001 3.782530e-001 -5.188301e-002 -4.854894e-002
1800240000 -6.588130e-002 -5.455404e-002 7.248023e-001 2.787294e-001 7.238827e-001 2.795485e-001 -8.792440e-003 -3.009904e-002
1845238500 9.019015e-002 -3.116471e-002 7.564141e-001 1.620609e-001 7.559289e-001 1.662227e-001 -5.702420e-002 -4.031974e-002
1890237000 -5.635696e-002 3.081629e-003 7.797655e-001 4.727245e-002 7.778001e-001 4.587198e-002 -2.104994e-002 -2.605736e-002
1935235500 4.896253e-002 -9.672237e-002 7.713766e-001 -6.506863e-002 7.713456e-001 -6.759302e-002 -5.840691e-002 -3.349151e-002
1980234000 -6.714214e-003 2.008517e-002 7.520605e-001 -1.979848e-001 7.541778e-001 -1.980222e-001 -2.717840e-002 -1.856168e-002
2025232500 -1.737019e-002 -1.082922e-001 7.204254e-001 -2.964099e-001 7.231973e-001 -2.899755e-001 -6.089696e-002 -2.363716e-002
2070231000 3.105479e-002 -1.297140e-002 6.578878e-001 -4.095524e-001 6.599498e-001 -4.073590e-001 -2.969046e-002 -1.055344e-002
2115229500 -5.748584e-002 -7.950120e-002 6.002045e-001 -4.978019e-001 6.017170e-001 -4.955251e-001 -5.853480e-002 -1.568935e-002
2160228000 2.426443e-002 -6.014605e-002 5.087222e-001 -5.775951e-001 5.119726e-001 -5.805370e-001 -3.432136e-002 -5.307833e-003
2205226500 -6.875803e-002 -4.884363e-002 4.201795e-001 -6.544513e-001 4.231069e-001 -6.517804e-001 -5.781605e-002 -1.194588e-002
2250225000 -1.586169e-002 -8.900420e-002 3.171243e-001 -7.026413e-001 3.183957e-001 -7.048180e-001 -3.955675e-002 6.111143e-004
2295223500 -7.144255e-002 -3.363204e-002 2.039858e-001 -7.458789e-001 2.066471e-001 -7.463027e-001 -6.052051e-002 -4.098636e-003
2340222000 -6.114304e-002 -8.665726e-002 9.808322e-002 -7.638978e-001 9.748724e-002 -7.658610e-001 -4.365524e-002 9.863968e-003
2385220500 -7.643748e-002 -2.222804e-002 -2.703964e-002 -7.713043e-001 -2.627549e-002 -7.693033e-001 -6.113189e-002 5.242689e-003
2430219000 -1.004543e-001 -6.572369e-002 -1.294941e-001 -7.571410e-001 -1.312046e-001 -7.586191e-001 -4.638150e-002 2.043991e-002
2475217500 -8.308951e-002 -5.336824e-003 -2.481793e-001 -7.255198e-001 -2.479260e-001 -7.273707e-001 -6.134690e-002 1.869234e-002
2520216000 -1.331241e-001 -2.663723e-002 -3.472760e-001 -6.795202e-001 -3.494432e-001 -6.803409e-001 -4.649414e-002 3.630589e-002
2565214500 -8.396075e-002 1.269370e-002 -4.481387e-001 -6.192943e-001 -4.482913e-001 -6.244481e-001 -5.695022e-002 3.442439e-002
2610213000 -1.477598e-001 2.801590e-002 -5.288677e-001 -5.427434e-001 -5.315049e-001 -5.449729e-001 -3.917318e-002 5.177474e-002
2655211500 -8.415354e-002 2.691562e-002 -6.088442e-001 -4.599167e-001 -6.120708e-001 -4.669622e-001 -4.586144e-002 4.944290e-002
2700210000 -1.278036e-001 9.158998e-002 -6.613375e-001 -3.596910e-001 -6.659708e-001 -3.604765e-001 -2.523971e-002 6.646004e-002
2745208500 -9.111737e-002 4.796926e-002 -7.176764e-001 -2.586390e-001 -7.214732e-001 -2.619705e-001 -2.709311e-002 6.444953e-002
2790207000 -7.933449e-002 1.333924e-001 -7.365060e-001 -1.502436e-001 -7.370455e-001 -1.522939e-001 -3.222489e-003 7.660143e-002
2835205500 -9.138911e-002 8.698720e-002 -7.590927e-001 -3.381261e-002 -7.607824e-001 -3.492301e-002 -4.860599e-003 7.351328e-002
2880204000 -1.902863e-002 1.448917e-001 -7.470465e-001 6.847710e-002 -7.474319e-001 6.772237e-002 2.041312e-002 7.790612e-002
2925202500 -6.170043e-002 1.335595e-001 -7.278159e-001 1.886787e-001 -7.321566e-001 1.886073e-001 2.311939e-002 7.137074e-002
2970201000 2.689261e-002 1.299529e-001 -6.958050e-001 2.848202e-001 -6.994157e-001 2.813226e-001 4.302539e-002 6.963746e-002
3015199500 -3.517947e-004 1.611097e-001 -6.434551e-001 3.891945e-001 -6.423323e-001 3.874185e-001 4.994195e-002 6.292979e-002
3060198000 5.638463e-002 1.086867e-001 -5.718568e-001 4.820432e-001 -5.772918e-001 4.866992e-001 6.249469e-002 5.752047e-002
3105196500 6.903730e-002 1.556835e-001 -5.075856e-001 5.421762e-001 -5.058209e-001 5.445487e-001 6.698198e-002 4.336294e-002
3150195000 7.821371e-002 9.412045e-002 -3.992547e-001 6.218652e-001 -4.020939e-001 6.229426e-001 7.524121e-002 3.429875e-002
3195193500 1.256280e-001 1.175041e-001 -3.291357e-001 6.780432e-001 -3.290577e-001 6.749158e-001 7.765780e-002 1.377365e-002
3240192000 1.036486e-001 7.272249e-002 -2.042268e-001 7.007249e-001 -2.046970e-001 7.055083e-001 8.455330e-002 1.028643e-002
3285190500 1.537991e-001 5.875137e-002 -1.133983e-001 7.454944e-001 -1.112022e-001 7.407235e-001 8.157792e-002 -8.971031e-003
3330189000 1.281442e-001 3.769084e-002 1.213139e-003 7.306342e-001 5.658982e-003 7.319102e-001 8.091380e-002 -1.346522e-002
3375187500 1.607845e-001 3.962850e-003 1.131609e-001 7.376332e-001 1.124753e-001 7.395719e-001 7.283437e-002 -3.357858e-002
3420186000 1.373276e-001 -3.225888e-003 2.133672e-001 6.995427e-001 2.160116e-001 6.999612e-001 7.204036e-002 -3.401458e-002
3465184500 1.497645e-001 -5.024600e-002 3.253649e-001 6.663792e-001 3.271795e-001 6.685778e-001 6.018050e-002 -5.187950e-002
3510183000 1.301629e-001 -4.697858e-002 4.107026e-001 6.076962e-001 4.103059e-001 6.096275e-001 5.839426e-002 -5.090785e-002
3555181500 1.180613e-001 -9.594957e-002 4.995247e-001 5.383141e-001 5.014963e-001 5.378693e-001 4.490333e-002 -6.279618e-002
3600180000 1.125769e-001 -8.205346e-002 5.690923e-001 4.616041e-001 5.697434e-001 4.615499e-001 4.206908e-002 -6.289469e-002
3645178500 7.635342e-002 -1.274568e-001 6.320512e-001 3.732645e-001 6.317085e-001 3.707924e-001 2.866055e-002 -7.101796e-002
3690177000 8.943772e-002 -1.196022e-001 6.801313e-001 2.749319e-001 6.820890e-001 2.713101e-001 2.392187e-002 -7.057970e-002
3735175500 2.838114e-002 -1.379057e-001 7.091689e-001 1.752837e-001 7.103734e-001 1.710100e-001 1.471014e-002 -7.722089e-002
3780174000 4.820643e-002 -1.487239e-001 7.240788e-001 6.859598e-002 7.286382e-001 6.321430e-002 6.879789e-003 -7.341355e-002
3825172500 -1.221821e-002 -1.281369e-001 7.312498e-001 -3.806722e-002 7.346191e-001 -4.492346e-002 -4.822015e-003 -7.643888e-002
3870171000 -9.225607e-003 -1.657284e-001 7.099102e-001 -1.406371e-001 7.090434e-001 -1.476504e-001 -1.442414e-002 -7.052706e-002
3915169500 -3.898699e-002 -1.109979e-001 6.877010e-001 -2.553561e-001 6.870031e-001 -2.596677e-001 -2.007838e-002 -7.695216e-002
3960168000 -7.412317e-002 -1.509365e-001 6.410980e-001 -3.361992e-001 6.406130e-001 -3.436034e-001 -3.256574e-002 -6.298352e-002
4005166500 -6.481113e-002 -9.948442e-002 5.744875e-001 -4.474587e-001 5.765726e-001 -4.511538e-001 -4.081779e-002 -6.865896e-002
4050165000 -1.229373e-001 -1.042093e-001 5.189021e-001 -5.120537e-001 5.170319e-001 -5.123538e-001 -4.951251e-002 -5.515633e-002
4095163500 -9.502535e-002 -9.060556e-002 4.173958e-001 -5.894459e-001 4.160363e-001 -5.895038e-001 -5.547203e-002 -5.337111e-002
4140162000 -1.482802e-001 -5.169696e-002 3.468247e-001 -6.481644e-001 3.466302e-001 -6.472322e-001 -6.826591e-002 -4.393424e-002
4185160500 -1.365161e-001 -6.109478e-002 2.266608e-001 -6.779178e-001 2.236483e-001 -6.767059e-001 -7.552075e-002 -3.153984e-002
4230159000 -1.508526e-001 -3.823513e-004 1.364776e-001 -7.259037e-001 1.351789e-001 -7.233042e-001 -7.799665e-002 -2.083725e-002
4275157500 -1.534436e-001 -8.261916e-003 2.446520e-002 -7.152885e-001 2.180655e-002 -7.100338e-001 -7.846121e-002 -7.748563e-003
4320156000 -1.373331e-001 4.722562e-002 -8.821119e-002 -7.312809e-001 -8.920005e-002 -7.266539e-001 -8.924431e-002 1.089643e-002
4365154500 -1.527604e-001 5.320944e-002 -1.750479e-001 -6.955383e-001 -1.785794e-001 -6.900968e-001 -7.685899e-002 1.850780e-002
4410153000 -1.177735e-001 8.911347e-002 -2.954373e-001 -6.631648e-001 -2.938633e-001 -6.629886e-001 -8.267649e-002 4.222754e-002
4455151500 -1.281488e-001 1.096611e-001 -3.759282e-001 -6.272981e-001 -3.721434e-001 -6.127986e-001 -6.993894e-002 4.953472e-002
4500150000 -8.202540e-002 1.221590e-001 -4.685115e-001 -5.565745e-001 -4.653962e-001 -5.514786e-001 -6.872962e-002 6.883603e-002
4545148500 -8.162609e-002 1.515147e-001 -5.459551e-001 -4.830095e-001 -5.426997e-001 -4.765388e-001 -5.292683e-002 7.285367e-002
4590147000 -3.754988e-002 1.434830e-001 -6.086150e-001 -3.887034e-001 -6.007361e-001 -3.922445e-001 -3.626340e-002 9.179863e-002
4635145500 -2.643568e-002 1.772689e-001 -6.581182e-001 -3.019237e-001 -6.571086e-001 -2.968367e-001 -2.126206e-002 9.057364e-002
4680144000 1.120481e-002 1.451710e-001 -6.931508e-001 -2.000495e-001 -6.902920e-001 -1.998966e-001 -6.718756e-003 9.948658e-002
4725142500 4.326176e-002 1.744334e-001 -7.149113e-001 -9.316882e-002 -7.133420e-001 -9.785494e-002 6.313330e-003 9.313597e-002
4770141000 5.397265e-002 1.341853e-001 -7.257740e-001 1.859772e-002 -7.152814e-001 1.043527e-002 2.645235e-002 9.372247e-002
4815139500 1.015158e-001 1.450987e-001 -7.077100e-001 1.127344e-001 -7.147812e-001 1.158586e-001 3.763033e-002 9.085841e-002
4860138000 9.118464e-002 1.182271e-001 -6.937273e-001 2.359173e-001 -6.821489e-001 2.112056e-001 5.434546e-002 7.460991e-002
4905136500 1.500499e-001 9.688197e-002 -6.446155e-001 3.099985e-001 -6.422940e-001 3.251667e-001 6.743840e-002 7.141125e-002
4950135000 1.265826e-001 8.725172e-002 -5.813836e-001 4.307364e-001 -5.944968e-001 4.032996e-001 7.005167e-002 5.110602e-002
4995133500 1.631241e-001 2.596646e-002 -5.385072e-001 4.801904e-001 -5.095521e-001 4.959451e-001 8.165324e-002 4.520388e-002
5040132000 1.554961e-001 4.349279e-002 -4.189209e-001 5.756411e-001 -4.569503e-001 5.646889e-001 7.486079e-002 2.597309e-002
5085130500 1.380775e-001 -2.524552e-002 -3.674836e-001 6.284450e-001 -3.317008e-001 6.225117e-001 9.050937e-002 2.128567e-002
5130129000 1.447139e-001 -1.528704e-002 -2.384246e-001 6.622447e-001 -2.655675e-001 6.848567e-001 7.384157e-002 6.899513e-003
5175127500 1.011051e-001 -6.202313e-002 -1.548931e-001 7.099918e-001 -1.328351e-001 6.808293e-001 7.503644e-002 -1.164113e-002
5220126000 1.152979e-001 -6.809516e-002 -4.414001e-002 6.928679e-001 -4.332321e-002 7.334203e-001 5.801804e-002 -1.290368e-002
5265124500 5.852829e-002 -7.581351e-002 7.757097e-002 7.207969e-001 6.577910e-002 6.898831e-001 5.881717e-002 -2.437813e-002
5310123000 6.248822e-002 -1.008481e-001 1.567267e-001 6.826600e-001 1.865170e-001 7.068887e-001 4.516127e-002 -1.627471e-002
5355121500 1.073931e-002 -7.265261e-002 2.879533e-001 6.494984e-001 2.612073e-001 6.456344e-001 3.751891e-002 -2.056746e-002
5400120000 -3.477196e-003 -9.019470e-002 3.501170e-001 6.151802e-001 3.841148e-001 6.021727e-001 2.952939e-002 -1.506044e-002
5445118500 -2.234549e-002 -5.106763e-002 4.638188e-001 5.331603e-001 4.436253e-001 5.490838e-001 2.004076e-002 -1.435131e-002
5490117000 -4.783284e-002 -5.408080e-002 5.173901e-001 4.900777e-001 5.350232e-001 4.541522e-001 1.653272e-002 -3.622865e-003
5535115500 -4.197791e-002 -1.393601e-002 5.928019e-001 3.781413e-001 5.892053e-001 3.946990e-001 1.262778e-002 1.278208e-003
5580114000 -6.629365e-002 -3.275384e-003 6.408981e-001 3.030564e-001 6.378058e-001 2.781789e-001 1.271274e-002 9.744304e-003
5625112500 -5.160636e-002 2.889106e-002 6.707584e-001 1.898604e-001 6.765183e-001 1.936544e-001 1.597906e-002 2.128108e-002
5670111000 -6.333818e-002 5.413989e-002 7.022452e-001 9.652814e-002 6.797224e-001 8.471721e-002 2.404884e-002 1.898474e-002
5715109500 -3.363561e-002 7.192756e-002 7.021933e-001 -1.059367e-002 6.920971e-001 -1.969512e-002 2.869759e-002 3.817940e-002
5760108000 -2.836147e-002 1.031701e-001 6.903127e-001 -1.153549e-001 6.694929e-001 -1.223321e-001 3.366593e-002 2.826104e-002
5805106500 -1.012571e-005 9.990682e-002 6.636658e-001 -2.103787e-001 6.397232e-001 -2.173349e-001 4.942767e-002 3.032951e-002
5850105000 2.463212e-002 1.296971e-001 6.154872e-001 -3.072603e-001 5.951675e-001 -3.094561e-001 5.149876e-002 2.683024e-002
5895103500 4.279738e-002 1.138800e-001 5.551111e-001 -3.974479e-001 5.477433e-001 -3.902634e-001 6.649976e-002 2.244644e-002
5940102000 7.931276e-002 1.351154e-001 4.938232e-001 -4.775814e-001 4.779012e-001 -4.684553e-001 6.878255e-002 1.535720e-002
5985100500 8.513582e-002 1.172490e-001 3.986769e-001 -5.325493e-001 4.187081e-001 -5.300680e-001 7.601313e-002 1.244493e-002
6030099000 1.337546e-001 1.132064e-001 3.272248e-001 -6.015704e-001 3.242437e-001 -5.786087e-001 6.986383e-002 -1.964606e-003
6075097500 1.352568e-001 1.028974e-001 2.254739e-001 -6.146417e-001 2.494240e-001 -6.347020e-001 7.500362e-002 -3.978781e-003
6120096000 1.706192e-001 6.876358e-002 1.362895e-001 -6.720739e-001 1.491347e-001 -6.421316e-001 6.701755e-002 -1.315387e-002
6165094500 1.748464e-001 6.569703e-002 4.912000e-002 -6.508402e-001 5.082728e-002 -6.794113e-001 7.080813e-002 -1.947691e-002
6210093000 1.837450e-001 1.581186e-002 -6.583125e-002 -6.673371e-001 -3.363609e-002 -6.530167e-001 5.622149e-002 -2.601610e-002
6255091500 1.970976e-001 4.272020e-003 -1.355017e-001 -6.467451e-001 -1.602504e-001 -6.568115e-001 5.239224e-002 -2.609063e-002
6300090000 1.876135e-001 -2.804294e-002 -2.579627e-001 -6.085972e-001 -2.190511e-001 -6.228910e-001 4.246447e-002 -3.073170e-002
6345088500 1.977498e-001 -4.692147e-002 -3.154042e-001 -5.836218e-001 -3.366681e-001 -5.682008e-001 3.837797e-002 -2.615975e-002
6390087000 1.685068e-001 -7.134151e-002 -4.106656e-001 -5.000601e-001 -3.951114e-001 -5.388144e-001 2.736986e-002 -2.052368e-002
6435085500 1.731596e-001 -1.049138e-001 -4.803853e-001 -4.680731e-001 -4.814339e-001 -4.405798e-001 2.306280e-002 -1.373871e-002
6480084000 1.503207e-001 -1.067485e-001 -5.265725e-001 -3.644989e-001 -5.408963e-001 -3.937627e-001 1.698597e-002 -1.161677e-002
6525082500 1.352542e-001 -1.460035e-001 -5.799445e-001 -2.938510e-001 -5.901391e-001 -2.979971e-001 1.714307e-002 -1.381792e-003
6570081000 1.156501e-001 -1.402464e-001 -6.182951e-001 -2.038933e-001 -6.281383e-001 -2.053760e-001 1.719009e-002 5.435542e-003
6615079500 7.870169e-002 -1.670138e-001 -6.301556e-001 -1.080882e-001 -6.392930e-001 -1.071419e-001 1.819835e-002 1.065871e-002
6660078000 7.301903e-002 -1.580548e-001 -6.498317e-001 -1.591868e-002 -6.652294e-001 -1.507783e-002 2.398090e-002 2.292841e-002
6705076500 3.091219e-002 -1.709032e-001 -6.337163e-001 6.961854e-002 -6.421359e-001 7.541668e-002 3.074050e-002 2.286713e-002
6750075000 2.655829e-002 -1.684404e-001 -6.174096e-001 1.732145e-001 -6.294650e-001 1.809279e-001 3.992225e-002 3.238047e-002
6795073500 -1.884132e-002 -1.579009e-001 -5.886769e-001 2.515899e-001 -5.961359e-001 2.616823e-001 4.494566e-002 3.566235e-002
6840072000 -2.107096e-002 -1.670202e-001 -5.376199e-001 3.390335e-001 -5.470199e-001 3.498227e-001 5.797488e-002 3.841626e-002
6885070500 -5.813297e-002 -1.367177e-001 -4.832089e-001 4.132776e-001 -4.894280e-001 4.245156e-001 6.065032e-002 3.612753e-002
